!
! BGU6005N2, Vcc=2.85V, Icc= 5.1900 mA
!
# MHz S MA R 50
!  Freq-MHz   S11-mag  S11-arg   S21-mag  S21-arg   S12-mag  S12-arg   S22-mag  S22-arg
         80   0.94011    -3.95   0.24365   -97.01 0.00035385   -58.70   0.99555    -9.09
         90   0.94081    -4.28   0.27475   -97.64 0.0019004   169.49   0.99619   -10.29
        100   0.93908    -4.70   0.30232   -97.07 0.00070571  -141.36    0.9942   -11.28
        120   0.93719    -5.55   0.36234   -98.56 0.00087788   -55.68    0.9903   -13.67
        140   0.93479    -6.24   0.42265   -99.03 0.00096415  -164.03   0.98976   -15.76
        160   0.93359    -6.86   0.47968   -99.95 0.0020768   172.67   0.98536   -18.00
        180   0.93205    -7.79   0.54004  -100.87 0.00098479   -11.28   0.98201   -20.23
        200   0.93073    -8.50   0.59791  -101.40 0.00058019    91.13   0.97892   -22.49
        220   0.92863    -9.25   0.65351  -102.46 0.00060605  -114.11   0.97463   -24.60
        240   0.92729    -9.97   0.71134  -103.04 0.00045841   -49.55    0.9701   -26.80
        260   0.92591   -10.85   0.76796  -103.89 0.0023173   148.50    0.9652   -28.93
        280   0.92643   -11.47   0.82876  -104.83 0.00039362  -124.37   0.96061   -31.12
        300   0.92349   -12.26   0.88406  -105.60  0.001667   159.96   0.95672   -33.41
        320   0.92325   -13.02   0.94371  -106.28 0.0017397  -146.76   0.95328   -35.54
        340   0.92054   -13.65    1.0007  -107.05 0.00073737   132.12   0.94764   -37.69
        360   0.92104   -14.40    1.0589  -107.79 0.00033473   120.45   0.94221   -39.83
        380   0.91934   -15.10    1.1177  -108.64 0.0014185  -124.55   0.93495   -42.04
        400   0.91932   -15.81    1.1762  -109.05 0.0020357   151.43   0.93131   -44.20
        420   0.91819   -16.61     1.235  -109.81 0.0011546  -149.37   0.92694   -46.41
        440   0.91758   -17.21    1.2962  -110.51 0.0013859  -138.03   0.92052   -48.48
        460   0.91757   -18.09    1.3605  -110.98 0.0014753  -141.33   0.91435   -50.69
        480    0.9166   -18.77    1.4221  -111.63  0.002436   148.89    0.9136   -52.64
        500   0.91524   -19.54    1.4931  -112.20 0.0024363  -166.82   0.90367   -55.04
        550   0.91475   -21.37    1.6632  -113.70 0.0028858  -160.73   0.89009   -60.42
        600   0.91527   -23.31    1.8549  -115.22 0.0036452  -160.41   0.87289   -65.95
        650   0.91446   -25.28     2.065  -117.03 0.0054966  -162.22   0.85482   -71.54
        700   0.91707   -27.34    2.3113  -119.26 0.0065936  -172.31   0.83661   -77.42
        750   0.91611   -29.51    2.5659  -121.93 0.0082126  -172.85   0.81375   -83.17
        800   0.91476   -31.85    2.8477  -124.95 0.0089699  -178.92   0.79228   -89.27
        850    0.9147   -34.06    3.1407  -128.25  0.011911  -177.51   0.76333   -95.51
        900    0.9115   -36.42    3.4487  -132.04  0.012811   176.80   0.73604  -101.79
        950   0.90655   -38.86    3.7624  -136.18  0.015221   173.33   0.70466  -108.46
       1000   0.90268   -41.61    4.0916  -140.81   0.01761   166.34   0.67103  -114.89
       1050   0.89357   -44.03    4.4178  -145.38  0.020318   164.90   0.63239  -121.80
       1100   0.88515   -46.74    4.7471  -150.53  0.022221   159.64   0.59167  -128.84
       1150   0.87452   -49.46     5.065  -155.78  0.025759   153.18   0.54608  -136.15
       1200   0.86053   -52.14    5.3642  -161.23  0.028481   147.20   0.49908  -143.67
       1250    0.8429   -54.73    5.6392  -166.77  0.030766   143.31   0.45042  -151.37
       1300   0.82402   -57.63    5.8715  -172.58  0.033357   138.83   0.39857  -159.55
       1350   0.80314   -59.91    6.0829  -178.16  0.036125   132.51   0.34479  -168.19
       1400   0.78221   -62.39    6.2704   176.03  0.038228   128.92   0.28979  -177.15
       1450   0.75646   -64.87    6.4096   170.21  0.040884   123.39   0.23635   172.32
       1500   0.72897   -67.07    6.4938   164.70  0.043605   118.22   0.18606   160.30
       1505    0.7298   -67.15    6.5199   164.05  0.044011   118.79   0.17838   159.24
       1510   0.72537   -67.08    6.5194   163.59  0.043274   117.19   0.17539   157.24
       1515   0.72104   -67.67    6.5167   162.90   0.04386   116.15   0.17068   156.53
       1520   0.71778   -67.79    6.5306   162.36  0.043585   116.47   0.16628   154.68
       1525   0.71866   -68.07    6.5556   161.73  0.043896   116.24   0.15997   153.31
       1530   0.71469   -68.07    6.5577   161.25  0.044638   117.32   0.15534   151.27
       1535   0.70998   -68.14    6.5425   160.91  0.044721   116.21   0.15229   150.02
       1540   0.70735   -68.56    6.5545   160.26  0.044084   114.64   0.14731   147.78
       1545   0.70907   -68.73     6.552   159.58  0.046232   114.59   0.14225   147.02
       1550   0.70384   -69.08    6.5555   158.95   0.04505   112.93    0.1388   145.54
       1555   0.70353   -69.04    6.5763   158.46  0.044876   114.14   0.13314   143.36
       1560   0.69813   -69.22    6.5622   158.01  0.045451   112.57   0.13083   141.32
       1565   0.69655   -69.47    6.5838   157.39  0.046366   110.65   0.12327   138.65
       1570    0.6948   -69.61    6.5746   156.86  0.045944   112.11   0.12057   136.44
       1575   0.69044   -69.81    6.5726   156.41  0.045214   111.02   0.11577   134.69
       1580   0.68845   -70.03    6.5766   155.72  0.046218   111.10   0.11329   132.09
       1585   0.68638   -70.40    6.5867   155.28  0.045886   110.48   0.10985   129.45
       1590   0.68509   -70.68    6.5877   154.63  0.046173   109.55   0.10466   127.92
       1595    0.6798   -70.56    6.5912   154.11   0.04653   111.41   0.10199   123.86
       1600   0.67665   -70.99    6.5699   153.55  0.047021   108.92  0.099044   123.96
       1605   0.67871   -70.69    6.6002   153.10  0.046363   109.55  0.095181   117.96
       1610   0.67209   -70.95    6.5872   152.58  0.047466   109.34  0.092032   114.33
       1615   0.67265   -71.07    6.5992   151.95  0.047052   107.93  0.089644   111.99
       1620   0.66843   -71.24     6.583   151.43  0.048009   108.44  0.086235   106.76
       1625   0.66642   -71.24    6.5928   150.99  0.046952   107.26  0.085248   104.61
       1630   0.66187   -71.79     6.572   150.48    0.0478   105.09  0.080866   102.99
       1635   0.66125   -71.86    6.5865   149.89  0.048068   106.79  0.079452    96.67
       1640   0.65973   -71.90    6.5944   149.32  0.047751   105.59  0.078841    92.94
       1645    0.6567   -72.04    6.5928   148.88  0.048443   105.47  0.077338    88.08
       1650   0.65403   -72.18    6.5821   148.39  0.048093   104.69  0.078091    84.18
       1700    0.6254   -73.38    6.5486   143.12  0.048345   100.94  0.086666    44.16
       1750   0.60645   -74.68    6.4789   138.19  0.049837    97.00   0.10946    17.12
       1800   0.58286   -75.58    6.4083   133.31  0.052091    93.11   0.14797    -0.18
       1850   0.56232   -76.13    6.2956   128.74  0.051648    90.12   0.18147   -11.00
       1900   0.54318   -76.90     6.195   124.22  0.051741    86.65   0.21563   -20.84
       1950    0.5258   -76.89    6.0692   119.88  0.052656    83.18   0.24895   -27.94
       2000   0.51079   -77.19    5.9326   115.83  0.052715    80.37   0.27844   -35.11
       2050   0.49436   -76.70    5.7923   111.89  0.051014    76.79   0.30968   -40.41
       2100   0.48491   -77.42    5.6572   107.88  0.052128    75.19   0.33323   -46.21
       2150   0.47579   -77.09    5.5208   104.25  0.051605    72.16   0.36066   -51.21
       2200   0.46292   -77.03    5.3546   100.64    0.0504    69.54   0.37998   -55.81
       2250   0.45522   -77.05    5.2187    97.18  0.051091    66.32   0.40309   -60.80
       2300   0.45081   -77.26    5.0726    93.79  0.050554    65.12   0.42521   -64.70
       2350   0.44492   -76.94    4.9237    90.67  0.049763    63.06   0.44184   -69.26
       2400   0.44206   -77.15    4.7907    87.49  0.050805    60.00   0.45891   -73.08
       2450   0.43947   -76.92    4.6526    84.36  0.048893    59.78   0.47608   -76.43
       2500   0.43378   -76.89    4.5128    81.52   0.04834    58.53   0.49106   -80.50
       2550   0.43206   -76.91     4.366    78.59  0.046768    57.02   0.50363   -83.87
       2600   0.42766   -77.17    4.2325    75.81  0.046896    54.69   0.51597   -87.25
       2650   0.42899   -76.96    4.1022    72.96  0.047232    53.74   0.52852   -90.63
       2700   0.42846   -77.26    3.9826    70.38   0.04582    53.71   0.54019   -93.80
       2750   0.43089   -77.37    3.8655    67.87  0.045022    51.03    0.5506   -96.92
       2800   0.42885   -77.94    3.7374    65.37  0.044844    49.92   0.55965   -99.87
       2850   0.43153   -78.31    3.6319    62.78  0.044567    49.48   0.57053  -102.83
       2900      0.43   -78.15    3.5146    60.53  0.042187    49.88   0.57961  -105.82
       2950   0.43514   -78.34    3.4019    58.07  0.040399    49.39   0.59024  -108.52
       3000   0.43327   -79.33    3.2892    55.82  0.041286    48.01   0.59657  -111.18
       3100   0.43911   -80.15     3.086    51.50  0.038738    48.84   0.61145  -116.44
       3200   0.44274   -81.23    2.8837    47.33  0.037999    48.74   0.62261  -121.64
       3300   0.44749   -83.20    2.7057    43.17  0.036535    48.22   0.63607  -126.45
       3400   0.45472   -84.77    2.5333    39.19  0.034534    51.77   0.64807  -131.20
       3500   0.45757   -86.64    2.3616    35.49  0.033265    52.84    0.6584  -135.64
       3600   0.46553   -88.53    2.2042    31.93   0.03242    56.98   0.66715  -140.36
       3700   0.46911   -90.56    2.0557    28.60  0.032533    58.03   0.67605  -144.64
       3800   0.47459   -92.40    1.9162    25.63  0.034379    63.08   0.68075  -148.77
       3900   0.47549   -94.40    1.7803    22.70  0.033676    64.76   0.68609  -152.48
       4000   0.48101   -96.77    1.6539    19.67  0.034937    67.57   0.69281  -156.41
       4100   0.48538   -99.13    1.5401    17.03  0.034703    73.03   0.69699  -160.01
       4200   0.48903  -101.32    1.4276    14.35  0.036736    70.48   0.70199  -163.62
       4300   0.49407  -103.63    1.3231    11.84  0.038465    75.71   0.70894  -167.29
       4400   0.49911  -106.49    1.2182     9.74  0.041757    78.82   0.71248  -170.98
       4500   0.50378  -108.56    1.1269     7.81  0.042727    80.05   0.71457  -174.45
       4600   0.50894  -110.95    1.0381     6.22  0.046762    81.90   0.71727  -177.91
       4700   0.51186  -113.29   0.95464     4.68   0.04845    82.65   0.72128   178.99
       4800   0.51788  -116.02   0.87972     3.39   0.05121    83.13   0.72188   175.74
       4900     0.524  -118.66   0.80507     2.38    0.0555    84.41   0.72521   172.67
       5000   0.52947  -121.35   0.73843     1.85  0.057905    84.07   0.72582   169.64
       5100   0.53261  -123.96    0.6728     1.82  0.060925    84.11   0.72813   166.73
       5200   0.54156  -126.57   0.61707     2.10  0.066723    84.36   0.72843   163.78
       5300   0.54343  -129.14   0.56496     3.11  0.069894    82.79   0.72771   161.08
       5400   0.55014  -131.73   0.51845     4.33  0.074599    82.04   0.72808   158.29
       5500   0.55514  -134.67   0.47771     6.30  0.078815    82.16   0.73033   155.62
       5600   0.55798  -137.82   0.44163     8.91  0.081759    79.35   0.73027   153.06
       5700   0.56261  -140.14   0.41353    12.20  0.086762    79.49   0.72949   150.31
       5800   0.56702  -142.75   0.39469    16.23  0.090453    78.21   0.72696   147.60
       5900   0.57052  -145.41    0.3838    19.92   0.09447    76.12   0.72365   145.18
       6000   0.57538  -148.16   0.37812    22.82  0.097311    74.45    0.7211   143.07
!  
! Device Noise Parameters
!  Freq-MHz   Fmin-dB  Gopt-mag  Gopt-arg   Rn-Ohm_normalized
       1000    0.7977   0.40169    34.76    0.1991
       1050    0.8038   0.40551    37.55    0.1916
       1100    0.8208   0.39427    37.27    0.1879
       1150    0.8408   0.37877    36.96    0.1872
       1200    0.8138   0.38032    40.16    0.1839
       1250    0.8242   0.38597    39.91    0.1768
       1300    0.8242   0.38344    40.81    0.1805
       1350    0.8102   0.38097    42.56    0.1735
       1400    0.8208   0.38978    42.93    0.1831
       1450    0.8487   0.37769    45.53    0.1644
       1500    0.8218   0.36461    45.38    0.1720
       1505    0.7956   0.35893    45.64    0.1681
       1510    0.8347   0.36462    45.69    0.1646
       1515    0.8332   0.36594    44.84    0.1695
       1520    0.8235   0.36278    48.63    0.1680
       1525    0.8293   0.36948    45.34    0.1659
       1530    0.8163   0.35606    43.41    0.1673
       1535    0.8204   0.37278    45.24    0.1711
       1540    0.8114   0.36497    45.63    0.1676
       1545    0.8268   0.35429    44.83    0.1690
       1550    0.8148   0.35080    44.85    0.1733
       1555    0.8479   0.35990    45.28    0.1711
       1560    0.8402   0.38541    46.36    0.1769
       1565    0.8379   0.36644    45.74    0.1694
       1570    0.8131   0.35589    46.52    0.1705
       1575    0.8172   0.36082    46.13    0.1693
       1580    0.7984   0.36567    45.45    0.1730
       1585    0.8095   0.35356    47.04    0.1651
       1590    0.8413   0.33937    44.11    0.1696
       1595    0.8151   0.35948    46.60    0.1664
       1600    0.8158   0.35710    47.11    0.1680
       1605    0.8122   0.34405    48.13    0.1715
       1610    0.8204   0.34994    45.14    0.1675
       1615    0.8156   0.36907    48.32    0.1642
       1620    0.8213   0.34652    48.27    0.1645
       1625    0.8059   0.35542    47.35    0.1656
       1630    0.8338   0.35437    47.69    0.1627
       1635    0.8518   0.34944    49.17    0.1658
       1640    0.8419   0.35849    48.27    0.1637
       1645    0.8183   0.35533    49.78    0.1605
       1650    0.8300   0.37265    49.31    0.1659
       1700    0.8298   0.35323    48.70    0.1661
       1750    0.8071   0.34963    49.94    0.1653
       1800    0.8289   0.35091    52.08    0.1595
       1850    0.8036   0.33852    52.23    0.1621
       1900    0.8432   0.34055    52.16    0.1632
       1950    0.8239   0.33654    55.31    0.1593
       2000    0.8193   0.32633    55.46    0.1534
       2050    0.8490   0.31744    55.67    0.1600
       2100    0.7803   0.31752    57.68    0.1677
       2150    0.8474   0.31055    58.07    0.1524
       2200    0.8600   0.31441    60.13    0.1600

