!	Filename:	P:\Prog\Test\Noise\ATS_data\Testdata_Net\Pin-45dBm\BGU7005_A3_Emitter	Ind_Version	A25_Pin-45dBm_2.85V_D.s2p									
!	Date/Time:	Fri	29-May-09	15:53:06									
!	BGU7005_A3_Emitter	Ind_Version	A25_Pin-45dBm_2.85V										
!	bias	mode	4:00	Vout=	2.85	"V,"	Iout=	5.58	"mA,"	Vin=-0.0001	"V,"	Iin=-0.0000	mA
!	Date/time	Mon	May	18	16:38:00	2009							
!	Device	data	file	deembeded	for	feedlines	and	parallel					
!	Original	file:	\Pin-45dBm\BGU7005_A3_Emitter	Ind_Version	A25_Pin-45dBm_2.85V_R.s2p								
!	Feed-files:	"PR031V01_SOT886_180509_Feed1.s2p,"	PR031V01_SOT886_180509_Feed2.s2p										
!	Parallel-file:	PR031V01_SOT886_180509_Par.s2p											
#	MHz	S	MA	R	50								
!	Freq-MHz	S11-mag	S11-arg	S21-mag	S21-arg	S12-mag	S12-arg	S22-mag	S22-arg				
	40	0.960	-1.760	0.034	-123.320	0.000	102.660	0.999	-2.630				
	50	0.958	-2.210	0.035	-118.710	0.000	161.510	0.999	-3.270				
	60	0.958	-2.560	0.033	-105.520	0.000	86.940	0.998	-3.930				
	70	0.955	-2.920	0.041	-98.030	0.000	60.230	0.998	-4.550				
	80	0.958	-3.470	0.046	-89.510	0.000	70.390	0.998	-5.200				
	90	0.956	-3.920	0.053	-84.120	0.000	110.760	0.997	-5.840
	100	0.957	-4.280	0.062	-79.300	0.000	97.490	0.997	-6.480
	120	0.956	-5.070	0.081	-69.660	0.000	91.470	0.996	-7.750
	140	0.953	-5.920	0.104	-64.420	0.000	77.520	0.995	-9.030
	160	0.951	-6.680	0.131	-60.950	0.000	63.720	0.994	-10.300
	180	0.948	-7.450	0.163	-58.340	0.000	78.700	0.993	-11.580
	200	0.947	-8.250	0.198	-57.200	0.000	63.750	0.992	-12.870
	220	0.945	-9.080	0.237	-56.640	0.000	68.850	0.991	-14.140
	240	0.941	-9.810	0.281	-56.540	0.000	45.400	0.990	-15.440
	260	0.941	-10.500	0.326	-56.890	0.000	43.130	0.989	-16.740
	280	0.937	-11.230	0.375	-57.690	0.000	32.230	0.988	-18.050
	300	0.935	-11.920	0.428	-58.650	0.000	38.760	0.987	-19.360
	320	0.933	-12.630	0.483	-59.800	0.000	11.060	0.985	-20.680
	340	0.930	-13.330	0.541	-61.130	0.000	-13.500	0.984	-22.010
	360	0.928	-14.020	0.602	-62.560	0.000	-41.160	0.982	-23.350
	380	0.926	-14.690	0.665	-64.110	0.000	-63.990	0.981	-24.700
	400	0.924	-15.370	0.731	-65.770	0.000	-73.950	0.979	-26.060
	420	0.922	-16.070	0.799	-67.460	0.000	-82.560	0.977	-27.420
	440	0.921	-16.730	0.868	-69.050	0.001	-87.220	0.975	-28.800
	460	0.919	-17.420	0.939	-70.830	0.001	-93.270	0.973	-30.200
	480	0.917	-18.120	1.013	-72.570	0.001	-97.910	0.970	-31.600
	500	0.915	-18.790	1.088	-74.390	0.001	-100.840	0.968	-33.020
	550	0.911	-20.480	1.283	-78.950	0.002	-108.000	0.961	-36.630
	600	0.907	-22.120	1.488	-83.510	0.002	-113.480	0.952	-40.340
	650	0.905	-23.870	1.704	-88.030	0.003	-118.440	0.943	-44.170
	700	0.904	-25.700	1.932	-92.630	0.004	-123.170	0.932	-48.120
	750	0.901	-27.610	2.167	-97.280	0.005	-127.800	0.919	-52.220
	800	0.899	-29.590	2.416	-101.920	0.007	-132.510	0.904	-56.480
	850	0.897	-31.640	2.673	-106.710	0.008	-137.080	0.887	-60.900
	900	0.893	-33.780	2.935	-111.520	0.010	-141.670	0.868	-65.530
	950	0.889	-36.060	3.207	-116.520	0.013	-146.430	0.846	-70.370
	1000	0.884	-38.410	3.492	-121.570	0.015	-151.020	0.820	-75.460
	1050	0.877	-40.870	3.783	-126.810	0.018	-156.000	0.790	-80.830
	1100	0.867	-43.420	4.073	-132.170	0.021	-160.980	0.756	-86.500
	1150	0.856	-46.070	4.364	-137.670	0.024	-166.120	0.718	-92.520
	1200	0.842	-48.840	4.653	-143.410	0.027	-171.510	0.675	-98.880
	1250	0.824	-51.630	4.931	-149.260	0.031	-177.150	0.627	-105.650
	1300	0.803	-54.450	5.188	-155.250	0.035	177.290	0.574	-112.880
	1350	0.779	-57.270	5.423	-161.350	0.039	171.500	0.516	-120.600
	1400	0.750	-60.040	5.634	-167.600	0.043	165.620	0.455	-129.000
	1450	0.720	-62.640	5.810	-173.890	0.047	159.630	0.391	-138.240
	1500	0.687	-65.060	5.943	179.830	0.051	153.730	0.326	-148.830
	1505	0.683	-65.290	5.954	179.190	0.051	153.130	0.320	-149.980
	1510	0.680	-65.500	5.967	178.550	0.052	152.490	0.313	-151.160
	1515	0.676	-65.730	5.971	177.940	0.052	151.900	0.307	-152.350
	1520	0.672	-65.950	5.981	177.310	0.053	151.290	0.300	-153.580
	1525	0.669	-66.120	5.991	176.710	0.053	150.750	0.294	-154.830
	1530	0.665	-66.340	5.998	176.070	0.053	150.140	0.288	-156.110
	1535	0.662	-66.570	6.007	175.440	0.054	149.540	0.281	-157.420
	1540	0.658	-66.750	6.018	174.800	0.054	148.960	0.275	-158.760
	1545	0.655	-66.980	6.025	174.200	0.054	148.370	0.269	-160.120
	1550	0.651	-67.130	6.029	173.580	0.055	147.810	0.263	-161.510
	1555	0.647	-67.380	6.038	172.930	0.055	147.190	0.256	-162.950
	1560	0.643	-67.510	6.041	172.330	0.055	146.650	0.250	-164.430
	1565	0.640	-67.710	6.042	171.720	0.056	146.060	0.244	-165.940
	1570	0.637	-67.900	6.049	171.110	0.056	145.440	0.238	-167.480
	1575	0.633	-68.080	6.052	170.500	0.056	144.890	0.232	-169.100
	1580	0.629	-68.210	6.055	169.900	0.057	144.340	0.226	-170.770
	1585	0.626	-68.420	6.061	169.270	0.057	143.740	0.221	-172.490
	1590	0.622	-68.610	6.065	168.640	0.058	143.120	0.215	-174.250
	1595	0.619	-68.760	6.069	168.050	0.058	142.560	0.209	-176.080
	1600	0.615	-68.890	6.072	167.420	0.058	141.960	0.204	-177.980
	1605	0.611	-69.070	6.075	166.800	0.058	141.410	0.198	-179.930
	1610	0.607	-69.140	6.076	166.190	0.059	140.820	0.193	178.050
	1615	0.604	-69.330	6.079	165.570	0.059	140.270	0.188	175.960
	1620	0.600	-69.490	6.076	164.980	0.059	139.650	0.183	173.800
	1625	0.596	-69.610	6.075	164.400	0.060	139.100	0.178	171.530
	1630	0.593	-69.750	6.075	163.790	0.060	138.510	0.173	169.210
	1635	0.590	-69.900	6.077	163.210	0.060	137.970	0.169	166.780
	1640	0.585	-70.000	6.075	162.600	0.061	137.400	0.164	164.260
	1645	0.582	-70.050	6.077	162.000	0.061	136.820	0.160	161.670
	1650	0.578	-70.190	6.075	161.390	0.061	136.280	0.156	158.960
	1700	0.543	-71.060	6.046	155.530	0.064	130.770	0.131	127.170
	1750	0.509	-71.440	5.979	149.880	0.066	125.400	0.138	93.400
	1800	0.478	-71.270	5.885	144.490	0.069	120.340	0.169	67.770
	1850	0.451	-70.630	5.769	139.280	0.070	115.430	0.211	50.080
	1900	0.427	-69.510	5.637	134.340	0.072	110.770	0.255	37.350
	1950	0.407	-67.980	5.492	129.590	0.073	106.390	0.298	27.450
	2000	0.391	-66.170	5.338	125.130	0.074	102.160	0.339	19.350
	2050	0.378	-64.180	5.176	120.820	0.075	98.160	0.378	12.290
	2100	0.370	-62.070	5.013	116.770	0.075	94.330	0.413	6.080
	2150	0.364	-60.000	4.849	112.880	0.076	90.730	0.445	0.450
	2200	0.361	-57.970	4.688	109.210	0.076	87.280	0.475	-4.700
	2250	0.359	-56.240	4.532	105.640	0.076	84.020	0.502	-9.530
	2300	0.361	-54.410	4.376	102.230	0.076	80.870	0.527	-14.080
	2350	0.364	-52.960	4.222	99.000	0.076	77.810	0.550	-18.350
	2400	0.368	-51.850	4.075	95.910	0.076	74.890	0.571	-22.420
	2450	0.372	-50.820	3.928	92.890	0.076	72.080	0.590	-26.320
	2500	0.378	-49.980	3.787	90.040	0.075	69.410	0.607	-30.070
	2550	0.384	-49.390	3.652	87.260	0.075	66.800	0.623	-33.670
	2600	0.391	-48.990	3.521	84.580	0.074	64.250	0.637	-37.150
	2650	0.398	-48.650	3.394	82.010	0.074	61.770	0.651	-40.550
	2700	0.405	-48.500	3.270	79.550	0.073	59.370	0.663	-43.840
	2750	0.413	-48.550	3.152	77.110	0.073	56.980	0.674	-47.060
	2800	0.420	-48.610	3.035	74.770	0.072	54.700	0.685	-50.210
	2850	0.428	-48.890	2.921	72.490	0.071	52.430	0.694	-53.280
	2900	0.436	-49.240	2.812	70.280	0.070	50.200	0.704	-56.320
	2950	0.443	-49.730	2.705	68.220	0.069	47.980	0.712	-59.290
	3000	0.451	-50.350	2.598	66.130	0.068	45.820	0.719	-62.230
	3100	0.466	-51.710	2.399	62.200	0.066	41.740	0.732	-68.010
	3200	0.481	-53.320	2.208	58.650	0.063	37.720	0.742	-73.690
	3300	0.497	-55.100	2.025	55.520	0.060	33.860	0.752	-79.240
	3400	0.511	-57.250	1.854	52.660	0.057	30.030	0.760	-84.720
	3500	0.524	-59.460	1.689	50.220	0.053	26.370	0.765	-90.150
	3600	0.538	-61.890	1.535	48.300	0.049	22.770	0.767	-95.560
	3700	0.551	-64.610	1.390	47.080	0.045	19.510	0.769	-100.880
	3800	0.564	-67.420	1.259	46.610	0.040	16.930	0.770	-106.100
	3900	0.576	-70.400	1.141	47.010	0.035	14.410	0.769	-111.300
	4000	0.587	-73.450	1.039	48.390	0.029	12.690	0.765	-116.490
	4100	0.597	-76.590	0.954	50.740	0.023	12.590	0.760	-121.640
	4200	0.605	-79.930	0.892	54.110	0.017	16.670	0.753	-126.670
	4300	0.613	-83.350	0.854	58.060	0.012	29.940	0.747	-131.550
	4400	0.620	-86.710	0.838	62.280	0.008	62.470	0.738	-136.380
	4500	0.627	-90.330	0.842	65.990	0.010	103.250	0.728	-141.180
	4600	0.632	-94.080	0.862	69.170	0.016	121.230	0.716	-145.850
	4700	0.636	-97.870	0.899	71.380	0.024	126.390	0.704	-150.330
	4800	0.639	-101.630	0.944	72.590	0.032	127.070	0.692	-154.650
	4900	0.639	-105.400	0.994	72.810	0.040	125.910	0.679	-158.850
	5000	0.639	-109.350	1.043	72.120	0.048	123.350	0.665	-162.900
	5100	0.636	-113.210	1.088	70.880	0.056	120.240	0.651	-166.740
	5200	0.632	-117.030	1.131	69.210	0.063	116.850	0.639	-170.330
	5300	0.628	-120.520	1.173	67.160	0.070	113.540	0.629	-173.800
	5400	0.627	-124.180	1.207	64.760	0.077	110.810	0.617	-177.190
	5500	0.624	-127.930	1.236	62.300	0.085	107.900	0.605	179.570
	5600	0.621	-131.700	1.265	59.580	0.092	104.650	0.595	176.540
	5700	0.617	-135.620	1.288	56.530	0.099	101.340	0.587	173.730
	5800	0.610	-139.410	1.304	53.480	0.105	98.050	0.580	171.050
	5900	0.603	-143.140	1.313	50.400	0.112	94.950	0.573	168.440
	6000	0.597	-146.730	1.319	47.320	0.118	91.360	0.567	165.990
	6100	0.590	-150.330	1.320	44.240	0.123	88.140	0.562	163.510
	6200	0.582	-153.940	1.317	41.050	0.128	85.180	0.559	161.260
	6300	0.572	-157.350	1.309	38.050	0.133	82.410	0.556	159.140
	6400	0.566	-160.780	1.301	34.940	0.138	78.990	0.556	157.010
	6500	0.555	-163.860	1.287	32.060	0.142	76.250	0.555	154.780
	6600	0.552	-167.070	1.274	28.940	0.147	72.890	0.556	152.620
	6700	0.544	-170.360	1.256	25.910	0.149	70.040	0.557	150.440
	6800	0.537	-173.500	1.236	22.940	0.153	67.140	0.558	148.510
	6900	0.528	-176.460	1.212	20.090	0.154	64.660	0.561	146.350
	7000	0.522	-179.450	1.189	17.260	0.157	62.270	0.564	144.200
	7100	0.516	177.710	1.165	14.530	0.160	59.830	0.567	142.210
	7200	0.510	174.680	1.138	11.630	0.161	57.060	0.571	140.040
	7300	0.501	171.780	1.107	8.990	0.162	55.120	0.573	137.940
	7400	0.493	169.540	1.081	6.670	0.166	53.000	0.579	136.190
	7500	0.486	167.170	1.053	4.110	0.167	50.540	0.585	134.060
	7600	0.484	164.900	1.028	1.490	0.168	47.980	0.591	131.970
	7700	0.480	162.320	0.996	-1.280	0.168	45.500	0.597	129.700
	7800	0.475	159.820	0.960	-3.750	0.168	43.340	0.603	127.420
	7900	0.469	157.330	0.925	-6.090	0.167	41.430	0.606	125.160
	8000	0.460	155.090	0.890	-8.050	0.166	40.190	0.608	123.120
	8100	0.454	153.700	0.863	-9.830	0.169	38.650	0.613	121.330
	8200	0.453	151.970	0.831	-12.040	0.168	36.430	0.618	119.140
	8300	0.448	150.150	0.799	-13.850	0.167	35.010	0.622	117.120
	8400	0.446	148.800	0.770	-15.670	0.168	33.290	0.627	115.100
	8500	0.445	147.110	0.739	-17.480	0.167	31.410	0.631	112.980
	8600	0.442	145.700	0.708	-18.920	0.166	30.190	0.632	111.070
	8700	0.442	144.390	0.681	-20.480	0.166	28.690	0.635	109.200
	8800	0.442	142.910	0.652	-21.780	0.165	27.380	0.639	107.290
	8900	0.443	141.820	0.626	-23.120	0.164	25.550	0.642	105.270
	9000	0.446	140.420	0.598	-24.400	0.162	24.110	0.643	103.340
	9100	0.445	138.940	0.569	-25.210	0.160	23.390	0.642	101.630
	9200	0.446	138.240	0.546	-25.900	0.160	22.530	0.644	99.970
	9300	0.452	137.230	0.521	-26.780	0.159	21.240	0.645	98.180
	9400	0.457	136.100	0.498	-27.350	0.158	20.230	0.646	96.450
	9500	0.466	134.580	0.475	-27.840	0.156	19.080	0.646	94.830
	9600	0.468	132.870	0.453	-27.910	0.154	18.570	0.645	93.350
	9700	0.472	131.580	0.432	-27.810	0.153	18.050	0.645	91.830
	9800	0.478	130.000	0.413	-27.290	0.152	17.580	0.644	90.320
	9900	0.480	128.500	0.397	-26.690	0.152	16.940	0.644	88.960
	10000	0.479	127.170	0.384	-26.060	0.153	16.050	0.643	87.690

!									
!	Device	Noise	Parameters						
!	Freq-MHz	Fmin-dB	Gopt-mag	Gopt-arg	Rn-Ohm_normalized				
	400	0.772	0.54	14.521	0.446				
	480	0.781	0.519	15.842	0.399				
	650	0.799	0.476	20.7	0.315				
	800	0.815	0.443	24.987	0.258
	950	0.831	0.412	29.274	0.216
	1100	0.847	0.385	33.561	0.187
	1250	0.863	0.362	37.848	0.168
	1400	0.879	0.342	42.135	0.158
	1500	0.89	0.331	44.993	0.156
	1550	0.895	0.326	46.422	0.156
	1600	0.9	0.321	47.851	0.156
	1650	0.906	0.317	49.28	0.157
	1700	0.911	0.313	50.709	0.159
	1750	0.916	0.309	52.138	0.16
	1900	0.932	0.301	56.425	0.167
	2050	0.948	0.296	60.712	0.176
	2200	0.965	0.294	64.999	0.183
	2350	0.981	0.296	69.286	0.188
	2600	1.007	0.307	76.431	0.186
	2800	1.029	0.323	82.148	0.17
	3000	1.05	0.345	87.864	0.136
