!
! MAXIM INTEGRATED PRODUCTS
!
! MAX2679 100kHz to 3000MHz, GPS/GNSS Ultra-low Current Low-Noise Amplifier
!
! MAX2679 Typical Scattering Parameters at Vcc=+1.8V, 100kHz to 3000MHz, TA = +25C 
!
! Notes: This data is measured using MAX2679 EV KIT. 
!	 	 The measurements are referenced at the input pin of the IC using De-embedding
!
# Hz S dB R 50
100000	-9.933589e-001	3.170124e-001	-4.550829e+001	-6.401433e+001	-2.000000e+002	0.000000e+000	-1.416505e-001	6.856656e-001
1974938	-4.817914e-001	-1.238251e-001	-4.675221e+001	1.445745e+002	-3.963715e+001	-3.915870e+001	-1.031108e-001	-3.181232e-001
3849875	-3.715384e-001	-1.797148e-001	-4.919064e+001	1.158248e+002	-5.051275e+001	-1.139061e+002	-6.131662e-002	-2.852852e-001
5724813	-4.316214e-001	7.850607e-002	-5.274513e+001	1.451948e+002	-2.000000e+002	0.000000e+000	-1.258678e-001	-5.351360e-001
7599750	-3.866050e-001	-1.988838e-001	-4.311776e+001	1.323323e+001	-4.861385e+001	-1.657978e+002	-1.531210e-001	-2.181220e-001
9474688	-3.593183e-001	-4.441198e-001	-6.217502e+001	-6.150726e+001	-6.389009e+001	-2.965283e+001	-1.527756e-001	-4.329268e-001
11349625	-2.930805e-001	-1.329593e-001	-5.260039e+001	-1.057326e+002	-6.861699e+001	-1.051383e+002	-2.038661e-001	-5.146946e-001
13224563	-3.595149e-001	-1.472555e-001	-5.003726e+001	-8.524823e+001	-5.879251e+001	-1.629682e+002	-1.160770e-001	-5.180964e-001
15099500	-3.329917e-001	-7.035023e-001	-5.268211e+001	-8.840720e+001	-6.953012e+001	-1.670013e+002	-1.582442e-001	-7.925098e-001
16974438	-3.533534e-001	-8.032200e-001	-5.205616e+001	-1.047827e+002	-6.021731e+001	3.391618e+001	-6.195079e-002	-5.471305e-001
18849375	-3.793713e-001	-9.282773e-001	-4.915070e+001	-8.328791e+001	-6.280988e+001	5.609124e+001	-1.067656e-001	-8.043158e-001
20724313	-3.591180e-001	-7.419653e-001	-4.684175e+001	-1.042613e+002	-5.818766e+001	-9.878212e+001	-1.116530e-001	-9.537142e-001
22599250	-3.411204e-001	-6.885426e-001	-4.839684e+001	-8.382113e+001	-6.394615e+001	-1.280166e+002	-1.601115e-001	-1.025061e+000
24474188	-2.986164e-001	-8.837546e-001	-4.642744e+001	-8.972124e+001	-5.760403e+001	-8.170043e+001	-7.754999e-002	-1.120192e+000
26349125	-3.549068e-001	-9.115411e-001	-4.619893e+001	-8.024074e+001	-6.470404e+001	-1.049384e+002	-1.276865e-001	-4.428607e-001
28224063	-3.515433e-001	-9.203784e-001	-4.645498e+001	-7.805928e+001	-5.773535e+001	-1.777413e+002	-1.872499e-001	-7.407611e-001
30099000	-3.535662e-001	-8.033873e-001	-4.461185e+001	-9.507921e+001	-6.006243e+001	1.163103e+002	-2.038824e-001	-8.993022e-001
31973938	-3.745840e-001	-9.756340e-001	-4.491023e+001	-9.905458e+001	-5.850200e+001	4.462513e+001	-1.452983e-001	-8.089170e-001
33848875	-3.636426e-001	-1.147273e+000	-4.363482e+001	-9.810177e+001	-6.220332e+001	-1.332375e+001	-1.546601e-001	-7.780536e-001
35723813	-3.418283e-001	-9.795915e-001	-4.308589e+001	-8.830291e+001	-7.168364e+001	5.537610e+001	-1.367055e-001	-1.021347e+000
37598750	-3.662651e-001	-1.313150e+000	-4.245094e+001	-9.725065e+001	-6.390111e+001	-5.912687e+001	-1.266691e-001	-9.355109e-001
39473688	-3.264970e-001	-1.178514e+000	-4.160711e+001	-9.645195e+001	-5.536597e+001	-1.494998e+002	-1.439676e-001	-1.240031e+000
41348625	-3.640060e-001	-1.056186e+000	-4.360370e+001	-9.052953e+001	-6.900731e+001	1.416214e+002	-1.382452e-001	-1.074829e+000
43223563	-3.018009e-001	-1.202884e+000	-4.310978e+001	-1.036322e+002	-6.245059e+001	1.329937e+002	-1.788952e-001	-1.224238e+000
45098500	-3.548195e-001	-1.241022e+000	-4.424130e+001	-9.035000e+001	-6.390007e+001	-1.303078e+002	-1.710467e-001	-1.188216e+000
46973438	-3.933220e-001	-1.408409e+000	-4.270951e+001	-9.351055e+001	-7.619861e+001	1.849561e+001	-1.476289e-001	-1.354924e+000
48848375	-3.469991e-001	-1.407500e+000	-4.241069e+001	-9.283850e+001	-5.970591e+001	-5.304357e+001	-1.344062e-001	-1.466053e+000
50723313	-3.495739e-001	-1.281508e+000	-4.177278e+001	-8.874035e+001	-5.747225e+001	-9.584733e+001	-1.175832e-001	-1.294601e+000
52598250	-3.460746e-001	-1.358759e+000	-4.163071e+001	-8.244553e+001	-6.025926e+001	8.306576e+001	-1.640180e-001	-1.486641e+000
54473188	-3.711445e-001	-1.351340e+000	-3.981702e+001	-8.677857e+001	-6.050479e+001	1.376674e+002	-1.591400e-001	-1.381672e+000
56348125	-3.834041e-001	-1.308034e+000	-4.150712e+001	-8.607062e+001	-7.041053e+001	4.946104e+001	-1.576863e-001	-1.472169e+000
58223063	-3.715065e-001	-1.618302e+000	-4.012328e+001	-8.399836e+001	-6.577940e+001	-1.293237e+002	-1.220938e-001	-1.639342e+000
60098000	-4.194485e-001	-1.733672e+000	-4.012162e+001	-8.157133e+001	-6.501045e+001	-3.138348e+001	-1.180115e-001	-1.527240e+000
61972938	-3.799149e-001	-1.782650e+000	-3.950329e+001	-8.335525e+001	-6.041301e+001	-1.010449e+002	-1.437775e-001	-1.596328e+000
63847875	-3.540739e-001	-1.703816e+000	-3.927507e+001	-8.599368e+001	-6.734230e+001	-4.996825e+000	-1.695463e-001	-1.580380e+000
65722813	-3.661019e-001	-1.829111e+000	-3.850473e+001	-8.200050e+001	-6.192007e+001	-1.248744e+002	-1.557730e-001	-1.701873e+000
67597750	-3.925074e-001	-1.812677e+000	-3.887121e+001	-8.521814e+001	-5.727008e+001	7.457876e+001	-1.510597e-001	-1.925857e+000
69472688	-3.670745e-001	-1.967505e+000	-3.714722e+001	-7.858274e+001	-6.501835e+001	1.491887e+002	-1.662375e-001	-1.841371e+000
71347625	-3.596955e-001	-2.105759e+000	-3.656555e+001	-8.136825e+001	-6.550890e+001	1.702313e+002	-1.492207e-001	-1.720856e+000
73222563	-3.459392e-001	-1.801007e+000	-3.598170e+001	-8.333526e+001	-7.255005e+001	-1.973952e+001	-1.385925e-001	-1.936680e+000
75097500	-3.573624e-001	-2.081618e+000	-3.460264e+001	-8.813549e+001	-6.652539e+001	6.970592e+001	-1.397485e-001	-1.842017e+000
76972438	-3.718545e-001	-2.190284e+000	-3.459425e+001	-9.579508e+001	-5.868293e+001	1.125096e+002	-1.412616e-001	-1.861461e+000
78847375	-4.020566e-001	-2.121258e+000	-3.479237e+001	-1.005454e+002	-6.297330e+001	-7.433403e+000	-1.595691e-001	-2.120425e+000
80722313	-3.757079e-001	-2.202234e+000	-3.547527e+001	-1.056752e+002	-6.240291e+001	9.191028e+001	-1.576678e-001	-2.124678e+000
82597250	-3.450508e-001	-2.325279e+000	-3.614388e+001	-1.110535e+002	-6.532130e+001	8.255555e+001	-1.521784e-001	-2.031092e+000
84472188	-3.810735e-001	-2.278724e+000	-3.706903e+001	-1.089225e+002	-5.918639e+001	5.752679e+000	-1.690626e-001	-1.964116e+000
86347125	-3.750198e-001	-2.151053e+000	-3.653952e+001	-1.083977e+002	-7.040397e+001	1.274149e+002	-1.469733e-001	-1.941236e+000
88222063	-3.613127e-001	-2.293260e+000	-3.732683e+001	-9.947497e+001	-5.877066e+001	-1.302644e+002	-1.416508e-001	-1.963432e+000
90097000	-3.517033e-001	-2.344510e+000	-3.717555e+001	-9.829985e+001	-5.787712e+001	-1.779272e+002	-1.382713e-001	-2.228178e+000
91971938	-3.759754e-001	-2.341177e+000	-3.666135e+001	-9.892136e+001	-6.181106e+001	-1.399188e+002	-1.665459e-001	-2.356741e+000
93846875	-3.589976e-001	-2.417914e+000	-3.739332e+001	-1.006292e+002	-6.913528e+001	1.660065e+002	-1.629398e-001	-2.255817e+000
95721813	-3.235942e-001	-2.526770e+000	-3.710900e+001	-9.537075e+001	-6.309893e+001	-1.217945e+002	-1.639929e-001	-2.445878e+000
97596750	-3.868175e-001	-2.438984e+000	-3.708940e+001	-9.446972e+001	-5.758318e+001	1.260838e+002	-1.270739e-001	-2.464921e+000
99471688	-3.553684e-001	-2.802239e+000	-3.728264e+001	-9.091079e+001	-6.389796e+001	1.376086e+001	-1.394623e-001	-2.464785e+000
101346625	-3.371029e-001	-2.909613e+000	-3.715182e+001	-9.322021e+001	-7.071105e+001	1.683739e+002	-1.592763e-001	-2.562133e+000
103221563	-3.440438e-001	-2.831908e+000	-3.695581e+001	-9.437475e+001	-6.574440e+001	8.808268e+000	-1.800590e-001	-2.556628e+000
105096500	-3.536216e-001	-2.818401e+000	-3.568023e+001	-9.098106e+001	-5.783731e+001	1.083939e+002	-1.580353e-001	-2.578232e+000
106971438	-3.557865e-001	-2.828110e+000	-3.687781e+001	-9.059481e+001	-5.801026e+001	3.248790e+001	-1.505993e-001	-2.536573e+000
108846375	-3.708848e-001	-2.878045e+000	-3.586147e+001	-8.820033e+001	-6.668615e+001	9.223340e+001	-1.192655e-001	-2.426069e+000
110721313	-3.812466e-001	-2.919976e+000	-3.646352e+001	-8.778170e+001	-6.593893e+001	1.136641e+001	-1.302862e-001	-2.656436e+000
112596250	-3.866486e-001	-2.947230e+000	-3.562070e+001	-9.098112e+001	-6.875638e+001	1.779828e+002	-1.552953e-001	-2.591733e+000
114471188	-3.461777e-001	-3.334412e+000	-3.666601e+001	-9.004280e+001	-6.487190e+001	-9.377622e+001	-1.323038e-001	-2.904291e+000
116346125	-3.574516e-001	-3.243857e+000	-3.504665e+001	-9.119032e+001	-5.885439e+001	-4.372740e+001	-1.621333e-001	-2.911848e+000
118221063	-3.758627e-001	-3.067729e+000	-3.537056e+001	-8.526374e+001	-6.041175e+001	2.431199e+001	-1.484772e-001	-3.315884e+000
120096000	-3.792576e-001	-3.315286e+000	-3.526850e+001	-9.073030e+001	-7.006611e+001	1.744730e+002	-1.479065e-001	-2.949628e+000
121970938	-3.870346e-001	-3.290035e+000	-3.538582e+001	-8.753431e+001	-5.499335e+001	1.183402e+002	-1.279304e-001	-2.762403e+000
123845875	-3.161588e-001	-2.942664e+000	-3.494256e+001	-8.495833e+001	-5.732903e+001	7.066393e+001	-1.792116e-001	-3.296799e+000
125720813	-3.485515e-001	-3.069863e+000	-3.478534e+001	-8.866398e+001	-5.960969e+001	5.077575e+001	-1.269258e-001	-3.100607e+000
127595750	-3.652436e-001	-3.408920e+000	-3.484772e+001	-8.874605e+001	-6.996991e+001	-8.343807e+001	-1.906893e-001	-3.043153e+000
129470688	-3.733155e-001	-3.144421e+000	-3.460002e+001	-8.417803e+001	-6.195394e+001	-3.042034e+001	-1.519074e-001	-2.943222e+000
131345625	-4.068718e-001	-3.561249e+000	-3.498962e+001	-8.701322e+001	-5.671859e+001	8.984747e+001	-1.444179e-001	-3.198817e+000
133220563	-3.613063e-001	-3.326613e+000	-3.464775e+001	-8.329760e+001	-6.230548e+001	7.278530e+001	-1.687660e-001	-3.291905e+000
135095500	-3.471172e-001	-3.740941e+000	-3.473846e+001	-8.261620e+001	-6.997326e+001	1.669005e+002	-1.743256e-001	-3.149706e+000
136970438	-3.935229e-001	-3.544587e+000	-3.448098e+001	-8.553346e+001	-5.565696e+001	1.757159e+002	-1.874951e-001	-3.484631e+000
138845375	-3.806496e-001	-3.731331e+000	-3.429235e+001	-8.411408e+001	-6.506207e+001	-1.117802e+002	-8.541272e-002	-3.554615e+000
140720313	-3.647234e-001	-3.837113e+000	-3.403733e+001	-8.379834e+001	-5.654046e+001	6.211802e+001	-1.888582e-001	-3.632707e+000
142595250	-4.144261e-001	-3.464662e+000	-3.463630e+001	-8.489268e+001	-6.445068e+001	-1.115621e+000	-1.922089e-001	-3.417620e+000
144470188	-3.514098e-001	-3.797135e+000	-3.403155e+001	-8.365030e+001	-6.477054e+001	1.009493e+002	-1.737661e-001	-3.155261e+000
146345125	-3.334388e-001	-3.863158e+000	-3.342651e+001	-8.694963e+001	-6.290728e+001	1.157685e+002	-1.571533e-001	-3.461655e+000
148220063	-3.440516e-001	-3.844773e+000	-3.295254e+001	-8.294585e+001	-6.132849e+001	1.617025e+002	-1.864847e-001	-3.363093e+000
150095000	-3.528621e-001	-4.180886e+000	-3.421014e+001	-8.008842e+001	-6.032611e+001	6.631183e+001	-1.466319e-001	-3.439363e+000
151969938	-4.341574e-001	-3.901935e+000	-3.359225e+001	-8.277659e+001	-5.647344e+001	1.266006e+002	-1.337898e-001	-3.593579e+000
153844875	-3.800644e-001	-4.018365e+000	-3.310051e+001	-8.196984e+001	-5.891195e+001	-6.478640e+001	-6.128465e-002	-3.259617e+000
155719813	-3.255092e-001	-3.857536e+000	-3.369369e+001	-7.688769e+001	-6.119623e+001	-2.681401e+000	-1.911031e-001	-3.422849e+000
157594750	-3.994901e-001	-4.396187e+000	-3.381719e+001	-8.099261e+001	-5.779216e+001	9.255171e+001	-1.641793e-001	-4.072483e+000
159469688	-3.801651e-001	-4.026451e+000	-3.337258e+001	-8.042017e+001	-6.591683e+001	-3.886495e+000	-1.168649e-001	-4.154352e+000
161344625	-3.964444e-001	-4.412609e+000	-3.325763e+001	-8.150565e+001	-6.316327e+001	1.034067e+002	-1.265788e-001	-4.074443e+000
163219563	-3.281670e-001	-4.306741e+000	-3.256584e+001	-8.014008e+001	-6.773641e+001	1.068264e+002	-7.414261e-002	-4.105348e+000
165094500	-3.451943e-001	-4.730370e+000	-3.278936e+001	-7.722781e+001	-6.023123e+001	-1.181132e+002	-1.741476e-001	-3.817523e+000
166969438	-3.933521e-001	-4.486583e+000	-3.312225e+001	-7.856895e+001	-6.114491e+001	-6.517630e+001	-1.730000e-001	-4.232792e+000
168844375	-3.964406e-001	-4.054637e+000	-3.241029e+001	-7.777931e+001	-6.305186e+001	2.758518e+000	-1.205293e-001	-4.315230e+000
170719313	-3.614398e-001	-4.573831e+000	-3.242351e+001	-7.889165e+001	-6.409975e+001	-7.478883e+001	-1.734373e-001	-4.137695e+000
172594250	-3.214269e-001	-4.582780e+000	-3.265172e+001	-7.829678e+001	-6.616465e+001	-3.823725e+001	-1.129331e-001	-4.376443e+000
174469188	-3.799917e-001	-4.855283e+000	-3.234973e+001	-7.688977e+001	-5.821445e+001	4.018170e+001	-1.278744e-001	-4.328171e+000
176344125	-3.680038e-001	-4.739867e+000	-3.226098e+001	-7.736045e+001	-6.888499e+001	4.630223e+000	-1.543977e-001	-4.315410e+000
178219063	-3.338759e-001	-4.824592e+000	-3.231209e+001	-7.804826e+001	-7.351663e+001	-1.662916e+001	-1.464736e-001	-4.356556e+000
180094000	-4.158183e-001	-4.809442e+000	-3.190307e+001	-7.725659e+001	-6.260247e+001	-3.540361e+000	-1.300212e-001	-4.273413e+000
181968938	-3.958590e-001	-4.663277e+000	-3.186305e+001	-7.709269e+001	-6.431694e+001	-2.622313e+001	-1.323918e-001	-4.477330e+000
183843875	-3.516222e-001	-4.430238e+000	-3.176965e+001	-7.529064e+001	-6.442372e+001	-1.213108e+002	-1.562182e-001	-4.201500e+000
185718813	-3.263581e-001	-4.932139e+000	-3.194834e+001	-7.909658e+001	-6.279850e+001	5.608057e+001	-1.370182e-001	-4.431203e+000
187593750	-3.630707e-001	-4.777447e+000	-3.196224e+001	-7.405555e+001	-5.646386e+001	1.711619e+002	-1.999519e-001	-4.656946e+000
189468688	-3.149021e-001	-5.104490e+000	-3.157039e+001	-7.534364e+001	-6.035318e+001	-8.244357e+001	-1.553967e-001	-4.617490e+000
191343625	-3.295884e-001	-4.821119e+000	-3.140678e+001	-7.431865e+001	-6.377456e+001	-1.625525e+002	-1.642598e-001	-4.549897e+000
193218563	-3.604940e-001	-4.862451e+000	-3.142825e+001	-7.360576e+001	-6.463364e+001	1.537378e+002	-2.093275e-001	-4.720958e+000
195093500	-3.605503e-001	-5.228102e+000	-3.149863e+001	-7.392742e+001	-6.978704e+001	1.204892e+002	-1.334687e-001	-4.810176e+000
196968438	-3.328118e-001	-4.819612e+000	-3.120220e+001	-7.324214e+001	-6.448304e+001	-6.157731e+001	-1.806263e-001	-4.693932e+000
198843375	-3.531111e-001	-5.114895e+000	-3.086642e+001	-7.500913e+001	-6.846809e+001	4.566364e+001	-1.696093e-001	-4.951364e+000
200718313	-3.169342e-001	-5.323218e+000	-3.081601e+001	-7.248779e+001	-6.680399e+001	8.821138e+001	-1.377098e-001	-4.927858e+000
202593250	-3.762360e-001	-5.351053e+000	-3.067514e+001	-7.153796e+001	-6.444189e+001	1.408832e+002	-1.218450e-001	-4.821548e+000
204468188	-3.665302e-001	-5.195258e+000	-3.074511e+001	-7.159146e+001	-6.296389e+001	7.957368e+001	-1.312796e-001	-5.084879e+000
206343125	-3.337153e-001	-5.435092e+000	-3.065632e+001	-7.183021e+001	-6.158831e+001	1.083711e+002	-1.380524e-001	-5.201108e+000
208218063	-3.631161e-001	-5.412086e+000	-3.048092e+001	-6.956812e+001	-6.627839e+001	1.595616e+002	-1.654433e-001	-4.773040e+000
210093000	-3.971818e-001	-5.589628e+000	-3.037346e+001	-6.956313e+001	-6.786637e+001	4.783475e+001	-1.586180e-001	-5.103329e+000
211967938	-3.533988e-001	-5.499537e+000	-3.040487e+001	-7.136241e+001	-7.098605e+001	4.226210e+001	-1.475859e-001	-5.050487e+000
213842875	-4.279630e-001	-5.772672e+000	-3.064057e+001	-7.110870e+001	-7.288122e+001	1.678163e+002	-1.275494e-001	-5.366090e+000
215717813	-3.797032e-001	-5.739839e+000	-3.027816e+001	-6.915504e+001	-6.988179e+001	1.789201e+002	-1.513148e-001	-5.430884e+000
217592750	-3.757640e-001	-5.735433e+000	-3.015930e+001	-7.101893e+001	-5.947970e+001	7.924762e+001	-1.327640e-001	-5.506869e+000
219467688	-3.932288e-001	-5.644622e+000	-2.996251e+001	-6.838061e+001	-8.412323e+001	4.083370e+001	-1.639387e-001	-5.363242e+000
221342625	-3.595418e-001	-5.639319e+000	-2.997290e+001	-6.890354e+001	-7.209388e+001	-4.278027e+001	-1.588131e-001	-5.478122e+000
223217563	-3.591849e-001	-5.406457e+000	-2.975986e+001	-6.906894e+001	-6.776036e+001	2.104950e+001	-1.648461e-001	-5.249827e+000
225092500	-3.494995e-001	-5.929282e+000	-2.978598e+001	-6.705591e+001	-6.244487e+001	6.460521e+001	-1.464664e-001	-5.376242e+000
226967438	-3.645464e-001	-5.935046e+000	-2.949807e+001	-6.708725e+001	-6.147545e+001	2.443649e+001	-1.778653e-001	-5.232010e+000
228842375	-4.192469e-001	-5.866704e+000	-2.968941e+001	-6.645776e+001	-7.169119e+001	5.796737e+001	-1.564623e-001	-5.442765e+000
230717313	-3.629321e-001	-5.970908e+000	-2.938357e+001	-6.727465e+001	-6.148949e+001	3.304806e+001	-1.579341e-001	-5.684225e+000
232592250	-3.750144e-001	-6.085686e+000	-2.952528e+001	-6.754909e+001	-6.491857e+001	-6.938534e+001	-1.698004e-001	-5.779359e+000
234467188	-3.691748e-001	-6.083639e+000	-2.935031e+001	-6.820168e+001	-5.705731e+001	8.536573e+001	-1.325648e-001	-5.481600e+000
236342125	-3.823729e-001	-5.945905e+000	-2.905335e+001	-6.437267e+001	-6.456368e+001	4.681822e+001	-1.927465e-001	-5.482565e+000
238217063	-3.894836e-001	-6.250995e+000	-2.915676e+001	-6.573174e+001	-6.141279e+001	9.763526e+001	-1.172149e-001	-5.708419e+000
240092000	-3.774789e-001	-6.256909e+000	-2.927894e+001	-6.591404e+001	-6.774997e+001	8.986406e+001	-1.582042e-001	-5.880820e+000
241966938	-3.851014e-001	-6.015571e+000	-2.914998e+001	-6.468435e+001	-8.061243e+001	-1.110664e+002	-1.287446e-001	-5.723272e+000
243841875	-3.799243e-001	-6.218595e+000	-2.897404e+001	-6.564152e+001	-6.518863e+001	-1.637327e+002	-1.687024e-001	-5.814903e+000
245716813	-3.784743e-001	-6.350680e+000	-2.891640e+001	-6.517307e+001	-6.569847e+001	1.713048e+002	-1.637726e-001	-5.888278e+000
247591750	-3.801575e-001	-6.369197e+000	-2.890504e+001	-6.243885e+001	-6.472242e+001	6.699695e+000	-1.639982e-001	-5.927839e+000
249466688	-3.884989e-001	-6.462825e+000	-2.884489e+001	-6.321015e+001	-6.765057e+001	5.738846e+001	-1.049693e-001	-5.862516e+000
251341625	-3.456377e-001	-6.568082e+000	-2.872437e+001	-6.481652e+001	-6.866715e+001	1.655953e+002	-1.535583e-001	-5.952177e+000
253216563	-3.761483e-001	-6.575725e+000	-2.865467e+001	-6.269556e+001	-5.960452e+001	9.107447e+001	-1.873458e-001	-5.960431e+000
255091500	-3.577488e-001	-6.528561e+000	-2.862930e+001	-6.359507e+001	-6.014822e+001	2.567849e+001	-1.704059e-001	-6.228590e+000
256966438	-3.470793e-001	-6.596601e+000	-2.840673e+001	-6.094202e+001	-6.318344e+001	1.070373e+002	-1.404624e-001	-5.986416e+000
258841375	-3.583585e-001	-6.457577e+000	-2.842336e+001	-6.282886e+001	-7.066893e+001	-9.062575e+001	-1.446790e-001	-6.288449e+000
260716313	-3.733545e-001	-6.695625e+000	-2.853529e+001	-6.205616e+001	-6.021769e+001	-3.166172e+000	-1.091467e-001	-6.475306e+000
262591250	-3.818900e-001	-6.686353e+000	-2.820815e+001	-6.018701e+001	-5.888485e+001	8.597335e+001	-2.017755e-001	-6.143780e+000
264466188	-3.638859e-001	-6.718702e+000	-2.803325e+001	-6.020579e+001	-6.192163e+001	-1.524584e+002	-1.399647e-001	-6.380704e+000
266341125	-4.204287e-001	-6.841823e+000	-2.803240e+001	-6.104036e+001	-7.474434e+001	1.076003e+002	-1.659970e-001	-6.475896e+000
268216063	-3.885527e-001	-7.079815e+000	-2.775323e+001	-6.109269e+001	-5.776652e+001	1.556057e+002	-1.760866e-001	-6.349467e+000
270091000	-3.647096e-001	-6.722542e+000	-2.776500e+001	-5.983187e+001	-6.636082e+001	-1.579636e+002	-1.515320e-001	-6.127662e+000
271965938	-3.816555e-001	-6.981939e+000	-2.756798e+001	-5.927912e+001	-5.957327e+001	9.377129e+001	-1.637171e-001	-6.597277e+000
273840875	-3.782733e-001	-7.038665e+000	-2.761955e+001	-5.936384e+001	-6.844569e+001	-1.036646e+002	-1.834283e-001	-6.175725e+000
275715813	-3.511280e-001	-7.261715e+000	-2.754559e+001	-6.061665e+001	-6.477559e+001	-4.740508e+001	-1.760218e-001	-6.386991e+000
277590750	-3.299012e-001	-7.142621e+000	-2.776321e+001	-5.940545e+001	-5.854038e+001	-6.339555e+001	-1.173589e-001	-6.680875e+000
279465688	-3.660348e-001	-7.181219e+000	-2.727670e+001	-5.941846e+001	-7.554942e+001	1.307173e+002	-2.167133e-001	-6.663484e+000
281340625	-3.985871e-001	-7.432861e+000	-2.739709e+001	-5.848668e+001	-6.605455e+001	4.610099e+001	-1.940136e-001	-6.995442e+000
283215563	-3.836839e-001	-7.117533e+000	-2.726194e+001	-5.597771e+001	-6.462199e+001	7.535862e+001	-1.601528e-001	-6.522023e+000
