!
! MAXIM INTEGRATED PRODUCTS
!
! MAX2693L Typical Scattering Parameters at Vcc=+2.85V, TA = +25oC 
!
! Notes: This data is measured using a MAX2693L EV KIT. 
!	 The measurements are referenced at the input and ouput pins of the IC by removing the matching network and DC block and replacing them with a short.  
!	 


# Hz S  RI   R 50
1000000000 0.75036073 -0.53639936 0.015042615 -0.72299874 -0.00055776048 0.0004393835 0.44628084 -0.85406315
1012500000 0.74086004 -0.54672545 0.0040801149 -0.75302464 -0.0010851203 0.00045408256 0.43654534 -0.85557252
1025000000 0.72899097 -0.54861397 -0.0074305926 -0.77618766 -0.00022140854 0.0022259117 0.42434958 -0.86142248
1037500000 0.72624153 -0.55075848 -0.015426631 -0.80533153 -0.00075663801 0.0014857319 0.41016349 -0.86524212
1050000000 0.72622067 -0.5511412 -0.018288627 -0.83766609 -0.00052097702 0.0018633206 0.39770335 -0.86695236
1062500000 0.72379607 -0.55387616 -0.026916163 -0.87007356 -0.001888238 0.00031559134 0.3836979 -0.87362731
1075000000 0.72007847 -0.56555748 -0.042177249 -0.90586245 -0.0015742062 0.00089804351 0.36816519 -0.87786162
1087500000 0.72005725 -0.57752836 -0.057723708 -0.94154125 -0.00024124936 0.00042626416 0.35620716 -0.88038754
1100000000 0.7045815 -0.57762939 -0.076159358 -0.97084022 -0.0014461941 0.0020198687 0.34097418 -0.88220239
1112500000 0.69603485 -0.57271183 -0.088871062 -1.004421 0.0004229261 0.00096264313 0.32249895 -0.8840704
1125000000 0.69457644 -0.5756917 -0.10147513 -1.038671 -0.0019671156 0.00053495041 0.30965608 -0.88282186
1137500000 0.69407856 -0.57959604 -0.11933353 -1.0883222 -0.0009122254 0.00017237464 0.29008505 -0.88901734
1150000000 0.69689739 -0.58831149 -0.14278859 -1.1336136 -0.0011496675 0.00092186005 0.27204618 -0.89308614
1162500000 0.68904144 -0.59414697 -0.16749986 -1.1712085 -0.00082395197 0.0013831158 0.25763837 -0.89202404
1175000000 0.67540848 -0.6010446 -0.20446217 -1.2122421 -0.00080009922 0.00054061523 0.23914565 -0.89183563
1187500000 0.67180854 -0.60123438 -0.23290244 -1.2537237 -0.00082891766 0.0011211355 0.22093186 -0.89126158
1200000000 0.66797227 -0.59904474 -0.25747213 -1.2971134 -0.00082017051 0.00069204211 0.2021644 -0.88940382
1212500000 0.66712946 -0.60263515 -0.2879841 -1.3528979 -0.00092964119 0.0016160418 0.18265985 -0.88825178
1225000000 0.66317123 -0.60877651 -0.32531923 -1.4039068 -0.0014367821 0.00071915484 0.16296148 -0.88763297
1237500000 0.66080344 -0.61780763 -0.36954233 -1.4599723 -0.003376239 0.0015032261 0.1436695 -0.8860901
1250000000 0.65078443 -0.62186551 -0.42264995 -1.5032861 -0.0001545971 0.0018990372 0.12024821 -0.88453072
1262500000 0.64194435 -0.61973119 -0.46737128 -1.5465589 -0.00084143673 0.0022852328 0.099919029 -0.87857473
1275000000 0.63680738 -0.61570013 -0.51856482 -1.5975755 -0.0014478406 0.0031479402 0.078654878 -0.87031746
1287500000 0.63469851 -0.61765766 -0.57293183 -1.6543139 -0.0020019531 0.001732752 0.050229594 -0.86652571
1300000000 0.63451862 -0.62321937 -0.64543492 -1.7207291 -0.0026737635 0.0025869017 0.027677262 -0.85999727
1312500000 0.63311887 -0.63220197 -0.72070038 -1.7899983 -0.00093253376 0.0018865803 -0.0032443742 -0.84973288
1325000000 0.62322813 -0.63566893 -0.80933589 -1.8407351 -0.0017000589 0.0024570893 -0.024413725 -0.83962941
1337500000 0.61380631 -0.6412462 -0.89955986 -1.8810459 -0.0028953294 0.0026499669 -0.053743448 -0.8273024
1350000000 0.6039356 -0.63918364 -0.99405277 -1.9268157 -0.0025097893 0.0025107272 -0.080279574 -0.81131506
1362500000 0.60258186 -0.6392836 -1.0945929 -1.9820935 -0.0011941959 0.0020446875 -0.11060277 -0.79392648
1375000000 0.60381037 -0.64065391 -1.2093915 -2.0424812 -0.0010807737 0.0020970951 -0.13926166 -0.77462268
1387500000 0.6035279 -0.64315999 -1.3476082 -2.1077352 -0.0021278616 0.0028798333 -0.17049704 -0.75031161
1400000000 0.59942079 -0.65298682 -1.5068423 -2.1487219 -0.0005575692 0.0034324352 -0.19851215 -0.72376806
1412500000 0.58994842 -0.6583215 -1.6666012 -2.167069 -0.0010975703 0.0019144835 -0.22673334 -0.6908747
1425000000 0.58215278 -0.6546973 -1.821267 -2.1834757 -0.0025592593 0.0024135131 -0.25534227 -0.65406781
1437500000 0.57929319 -0.65204638 -1.9967815 -2.196013 -0.0014769437 0.0016943908 -0.2802915 -0.61275744
1450000000 0.57974964 -0.65777349 -2.1885259 -2.2022929 -0.00036412111 0.0032642924 -0.30244911 -0.57034051
1462500000 0.5799455 -0.65986186 -2.4123454 -2.1940851 -0.0018006118 0.0022417952 -0.32990259 -0.52434325
1475000000 0.57437879 -0.66606647 -2.6649415 -2.1377966 -0.00048965728 0.0029360768 -0.34507078 -0.46868509
1487500000 0.56665415 -0.67439532 -2.9054267 -2.0424447 -0.0019482954 0.0023570939 -0.35802633 -0.40788943
1500000000 0.55847925 -0.67548358 -3.1222599 -1.9371707 -0.0023324671 0.0018429093 -0.3652826 -0.34494978
1512500000 0.55798632 -0.67387837 -3.3463902 -1.8057311 -0.0028567545 0.0012901649 -0.36218882 -0.28094363
1525000000 0.54742062 -0.67479265 -3.5479462 -1.6298022 -0.0016342907 0.00021202736 -0.35234198 -0.20905429
1537500000 0.55147856 -0.67734188 -3.7694311 -1.4548316 -0.0022182022 0.0025502711 -0.33077922 -0.13945635
1550000000 0.54592401 -0.68220907 -3.9946992 -1.2042981 -0.002099924 0.0026097931 -0.29974565 -0.067492105
1562500000 0.53830093 -0.68837851 -4.179307 -0.87928462 -0.00073707057 0.0024204808 -0.25689054 -0.0010098794
1575000000 0.52938408 -0.69234824 -4.2913289 -0.54722255 -0.0028388784 0.001919123 -0.20231494 0.05969888
1587500000 0.5229156 -0.69012612 -4.345746 -0.21628909 -0.0024334898 0.001480632 -0.14055315 0.11336448
1600000000 0.52318913 -0.68839139 -4.3739414 0.10093734 -0.0023716087 0.002367036 -0.070477501 0.15740214
1612500000 0.52278465 -0.68960184 -4.3791366 0.41765174 -0.0033132622 0.001832922 0.0034122516 0.19094871
1625000000 0.52181625 -0.69710064 -4.3360524 0.73078722 -0.0013823074 0.001902476 0.082963564 0.21303432
1637500000 0.51692659 -0.70449173 -4.2495403 1.0615175 -0.0035093362 0.0033551678 0.16116408 0.21910863
1650000000 0.50532174 -0.71037424 -4.1011071 1.3711429 -0.004620004 0.0030317111 0.23530556 0.21776105
1662500000 0.4930107 -0.71014863 -3.900346 1.6441611 -0.0048913057 0.0037487061 0.30922461 0.20618683
1675000000 0.48685002 -0.70604992 -3.6981099 1.8485295 -0.0027033403 0.003380226 0.37433043 0.18319516
1687500000 0.48678705 -0.70418304 -3.5141785 2.0129974 -0.0032160114 0.0045227795 0.43880561 0.15618141
1700000000 0.48521766 -0.70935607 -3.3119473 2.1769505 -0.0049111294 0.0057236874 0.48870769 0.12374634
1712500000 0.47848225 -0.7145564 -3.1035511 2.310926 -0.0033119037 0.0045764642 0.53891528 0.090575323
1725000000 0.47043955 -0.71612585 -2.8751216 2.404645 -0.0039026507 0.0044059115 0.57996911 0.054097243
1737500000 0.46558326 -0.71723306 -2.6767232 2.4709318 -0.0048945388 0.005304364 0.6148333 0.011486514
1750000000 0.46041179 -0.71469754 -2.4608648 2.5154181 -0.0029556176 0.0074792067 0.63972956 -0.025243662
1762500000 0.45510629 -0.71466082 -2.2872353 2.5372398 -0.0037570195 0.0064238445 0.66432309 -0.066954054
1775000000 0.45606598 -0.71509624 -2.1451664 2.543062 -0.0045659589 0.0067180246 0.68479669 -0.10329542
1787500000 0.44951236 -0.71901101 -1.9751636 2.5588586 -0.0015110322 0.0054008272 0.70064026 -0.14080028
1800000000 0.44602001 -0.72005147 -1.8142236 2.5630674 -0.0022130494 0.007058566 0.71270812 -0.17819814
1812500000 0.43983471 -0.72151047 -1.6714395 2.5564864 -0.0013653141 0.0068466114 0.72450686 -0.21341191
1825000000 0.43043697 -0.71983206 -1.5287573 2.5206785 -0.0015429028 0.0079032518 0.72815931 -0.24572857
1837500000 0.4238596 -0.71703166 -1.3989223 2.4860256 -0.0021596327 0.0077883885 0.73385602 -0.27647579
1850000000 0.42471382 -0.71784079 -1.2961882 2.4515212 -0.00086836785 0.0079464586 0.73745596 -0.30429056
1862500000 0.42789614 -0.72023225 -1.2035747 2.4177692 -0.00048163161 0.0074658813 0.74097824 -0.3377724
1875000000 0.42225516 -0.7219277 -1.1100931 2.3875494 -0.000310884 0.0081672221 0.73959047 -0.36399132
1887500000 0.41623822 -0.72369695 -1.0156188 2.3619576 0.00080698088 0.0074263681 0.73334777 -0.38864517
1900000000 0.40802845 -0.72603101 -0.92819601 2.3223953 -0.0018772518 0.0098634837 0.73627967 -0.41266137
1912500000 0.40252697 -0.725209 -0.83690161 2.2807038 0.00072833692 0.0090227928 0.73420054 -0.43564034
1925000000 0.40550244 -0.7191751 -0.78382552 2.2229245 0.00060158962 0.0085927062 0.73150772 -0.45955202
1937500000 0.40799993 -0.72408211 -0.73304152 2.1962452 0.0012320981 0.007341098 0.72808242 -0.4757174
1950000000 0.4031114 -0.72677684 -0.67232698 2.1721284 0.00013007698 0.0086114518 0.72124279 -0.49800768
1962500000 0.40106392 -0.73466909 -0.61968684 2.1447368 0.0013001661 0.0087721143 0.71679503 -0.51333523
1975000000 0.38798317 -0.73501891 -0.54158127 2.0934279 0.00082128274 0.0095601454 0.71492481 -0.53411061
1987500000 0.38432828 -0.73054105 -0.48260871 2.0418739 0.0032099232 0.0091767171 0.70368904 -0.54842734
2000000000 0.37911269 -0.73012632 -0.44353208 1.9925091 0.0019459898 0.007485304 0.69883049 -0.56277621
2012500000 0.37873504 -0.7282992 -0.40797463 1.9610226 0.00073549006 0.010077151 0.69453639 -0.57792777
2025000000 0.38249022 -0.73210394 -0.37458503 1.9331019 0.0029785028 0.0092284903 0.6864444 -0.58988476
2037500000 0.37871403 -0.73472309 -0.32883981 1.9007683 0.003241509 0.0068575125 0.68230915 -0.60645294
2050000000 0.37248641 -0.73638874 -0.28892672 1.8648844 0.0042546438 0.0088181542 0.67747927 -0.61569571
2062500000 0.36617857 -0.73758489 -0.25117597 1.8324165 0.0020983273 0.0073443805 0.67334914 -0.62833798
2075000000 0.36283571 -0.73478395 -0.22348733 1.7907355 0.0026095107 0.0079944776 0.66876209 -0.63662982
2087500000 0.359249 -0.7340948 -0.20064262 1.7538241 0.0036480809 0.0084655313 0.65832752 -0.6503213
2100000000 0.35776037 -0.73078585 -0.18207176 1.721303 0.0025684794 0.0074601499 0.6550014 -0.66050154
2112500000 0.35750636 -0.73785824 -0.16831647 1.7076015 0.0037589748 0.0064368034 0.64756238 -0.66862023
2125000000 0.35141146 -0.74642718 -0.12483096 1.6931443 0.0040641408 0.0081355609 0.64385402 -0.67788303
2137500000 0.34239846 -0.74597359 -0.084917173 1.655883 0.0061060381 0.0079676621 0.63640004 -0.68795866
2150000000 0.34296858 -0.73980343 -0.075786196 1.614969 0.0044054436 0.0076759467 0.63201404 -0.69747484
2162500000 0.33974046 -0.73914164 -0.055944175 1.5876417 0.0046888771 0.0061871954 0.6247052 -0.70313317
2175000000 0.34089285 -0.74234939 -0.04451983 1.5639087 0.0048804767 0.0059618037 0.61979061 -0.71074152
2187500000 0.33712631 -0.74368006 -0.027599802 1.5367129 0.0045368355 0.0045481236 0.61459708 -0.71916378
2200000000 0.3304005 -0.75009495 -0.0090366043 1.5210463 0.0042695538 0.0059535909 0.60859722 -0.72625268
2212500000 0.3294642 -0.75003386 0.0090256557 1.4952261 0.0039312583 0.0063013472 0.60729468 -0.73258656
2225000000 0.32288393 -0.74757355 0.034827385 1.4624443 0.0032760757 0.0055966969 0.60329783 -0.74138027
2237500000 0.31748274 -0.74714404 0.046271466 1.4344187 0.0047615548 0.0052630147 0.59794134 -0.74632913
2250000000 0.32025152 -0.74444383 0.05202169 1.4139439 0.0040265229 0.0064882333 0.59209985 -0.75446898
2262500000 0.32013908 -0.74898875 0.062234469 1.3969855 0.0063654855 0.0048062601 0.5862624 -0.75941128
2275000000 0.31695712 -0.75204211 0.076765403 1.3827194 0.0054358491 0.0067842947 0.58308691 -0.75976449
2287500000 0.30987287 -0.75594145 0.091277242 1.3653642 0.0050713141 0.0047162892 0.57891685 -0.76825756
2300000000 0.30504176 -0.75526851 0.10196436 1.3414819 0.00572334 0.0062680608 0.57345802 -0.77462417
2312500000 0.30097726 -0.75289768 0.115067 1.315366 0.0051850728 0.0072243493 0.56873435 -0.77891171
2325000000 0.29499155 -0.74486709 0.12318592 1.2821378 0.0061336323 0.0059691411 0.56902474 -0.78147262
2337500000 0.29990646 -0.76620507 0.15068059 1.2886722 0.0047441674 0.0046469201 0.555143 -0.7910704
2350000000 0.29701582 -0.75602454 0.13771997 1.2566637 0.0056482591 0.0041186558 0.55677176 -0.79314768
2362500000 0.29174021 -0.76078767 0.15012179 1.2424045 0.0061135553 0.0055489987 0.55247593 -0.79849428
2375000000 0.2811186 -0.76190859 0.16789044 1.22402 0.0059229522 0.0050013606 0.5494113 -0.80145234
2387500000 0.28069553 -0.76026022 0.17515123 1.1992785 0.0035305789 0.0031184161 0.54774255 -0.80253065
2400000000 0.27936086 -0.75575441 0.17530495 1.1824186 0.0048063039 0.0036680975 0.54369533 -0.8093968
2412500000 0.27568394 -0.75478297 0.18404321 1.1631941 0.0060129436 0.002663394 0.54010683 -0.81200421
2425000000 0.28218582 -0.75802791 0.18582323 1.1515476 0.004720815 0.0012307129 0.53763551 -0.81107479
2437500000 0.2719385 -0.76564419 0.20427912 1.137547 0.0060887453 0.0028632127 0.53248459 -0.81693125
2450000000 0.2703141 -0.76491439 0.20606162 1.1311135 0.0062374864 0.0016462448 0.53013921 -0.81450051
2462500000 0.26674876 -0.76129001 0.21449131 1.1137093 0.0045659705 0.0041873823 0.52374089 -0.82347393
2475000000 0.26359573 -0.76105541 0.21550615 1.0923713 0.0043152422 0.0036627946 0.52119964 -0.82734412
2487500000 0.25963542 -0.75967902 0.21606493 1.0777414 0.0044687176 0.0032355024 0.51880664 -0.8312031
2500000000 0.26173124 -0.75988322 0.21557881 1.0645043 0.0054239114 0.0025561582 0.51461893 -0.83202982
2512500000 0.25753626 -0.76715189 0.23372021 1.0541168 0.0033178837 0.003074388 0.51160896 -0.83457261
2525000000 0.24971654 -0.76974583 0.24005066 1.0409131 0.0054136491 0.0021389432 0.51113868 -0.83632785
2537500000 0.24326247 -0.76890725 0.24400581 1.0228041 0.0036649066 0.001993245 0.50633681 -0.83990997
2550000000 0.24286094 -0.76755053 0.24897103 1.0046054 0.0070672412 0.0033613176 0.50505418 -0.84322339
2562500000 0.24064179 -0.76382363 0.24972367 0.99516642 0.0043391506 0.0038065922 0.50040221 -0.8458963
2575000000 0.24021931 -0.76360619 0.2529996 0.97999144 0.0055005741 0.0036773223 0.50127679 -0.84646368
2587500000 0.23918486 -0.7691415 0.25646517 0.97165054 0.0058934679 0.0036289722 0.49708399 -0.8486985
2600000000 0.2374991 -0.76883817 0.25828904 0.96139741 0.0053791231 0.004640555 0.49470466 -0.85132223
2612500000 0.23172292 -0.77244097 0.26651937 0.95385188 0.0058725625 0.0019965419 0.49179307 -0.85262007
2625000000 0.22670019 -0.77411455 0.27219865 0.94114852 0.0059929094 0.0029891131 0.48829311 -0.85811931
2637500000 0.22116405 -0.76404226 0.26229745 0.91789311 0.006710765 0.0021832513 0.48567167 -0.85507226
2650000000 0.22432575 -0.76997644 0.27029729 0.91970932 0.0061617838 0.002782085 0.48062512 -0.85962701
2662500000 0.22041678 -0.77006459 0.27233729 0.90631944 0.0067725321 0.0025811682 0.47877976 -0.861166
2675000000 0.22090873 -0.7743665 0.27512082 0.89956915 0.0038736316 0.0025435567 0.47604078 -0.86351687
2687500000 0.21374477 -0.77743274 0.28175074 0.88609058 0.0050756889 0.002011199 0.4715094 -0.86467117
2700000000 0.20918885 -0.77737552 0.28670895 0.87171561 0.0065173004 0.0025991146 0.47039625 -0.86442679
2712500000 0.20640537 -0.77330488 0.28859687 0.85926187 0.0049213921 0.00070054719 0.46870634 -0.86984426
2725000000 0.20774764 -0.77160913 0.28420809 0.85384029 0.0041782632 0.0023140872 0.46892944 -0.87319344
2737500000 0.20859422 -0.77322781 0.28373528 0.84134066 0.0043994091 0.0011586171 0.47027406 -0.8743363
2750000000 0.20649731 -0.77815694 0.28389084 0.83569837 0.0047763232 0.0010435003 0.46423829 -0.87792343
2762500000 0.20284879 -0.77879834 0.28726482 0.82901037 0.0046268967 0.0020194498 0.46415672 -0.87399477
2775000000 0.19655931 -0.78352755 0.29380327 0.82130641 0.0052989498 0.0022582917 0.46083322 -0.87617517
2787500000 0.19500531 -0.78018093 0.30057836 0.80869138 0.0066203605 0.0017914126 0.45868161 -0.87820691
2800000000 0.19334443 -0.7813254 0.30307078 0.79733366 0.0060464218 0.0016128377 0.45531654 -0.87626284
2812500000 0.19107948 -0.77808309 0.29531378 0.79234695 0.0042328653 0.0016288109 0.4542478 -0.87943262
2825000000 0.18903132 -0.78309262 0.29736617 0.78807235 0.0052592941 0.0022473496 0.45159763 -0.88304067
2837500000 0.18231258 -0.78465217 0.30160061 0.78016376 0.0055106576 0.00097450893 0.44421422 -0.88378614
2850000000 0.17892317 -0.7887128 0.30645245 0.77355015 0.0050674789 0.00060213864 0.44513133 -0.88563997
2862500000 0.17056671 -0.78447604 0.31131828 0.76158255 0.0042108679 0.0006081257 0.44035715 -0.89009374
2875000000 0.16925 -0.78125262 0.30874225 0.74848992 0.0053975102 -0.00032266066 0.44024125 -0.88906997
2887500000 0.16703516 -0.78224355 0.30978587 0.74145228 0.0046078037 0.00042345907 0.43713215 -0.89003384
2900000000 0.16542026 -0.78255951 0.3081542 0.73549777 0.0045373207 -0.00014045532 0.43516362 -0.89009947
2912500000 0.16510896 -0.78468966 0.30749258 0.73130882 0.0041729826 -0.00024250516 0.43252644 -0.89321905
2925000000 0.16119209 -0.78564554 0.31353438 0.72543925 0.0048394836 0.0020600683 0.43190908 -0.8916961
2937500000 0.15908296 -0.78458029 0.31178108 0.72193795 0.0052844402 0.00083083438 0.43477055 -0.89128029
2950000000 0.15110528 -0.78136748 0.31659541 0.70658195 0.004544728 9.8758574e-005 0.4275313 -0.8940767
2962500000 0.14943659 -0.78086865 0.31898627 0.70011175 0.0054660635 0.00088615372 0.42494977 -0.89212358
2975000000 0.15062568 -0.78184783 0.32044852 0.69661778 0.0062128301 -0.0014073966 0.42078099 -0.89344639
2987500000 0.14964421 -0.78231627 0.31436548 0.69012046 0.0045439736 0.00070884777 0.41654003 -0.89754713
3000000000 0.14472222 -0.78596902 0.3174203 0.68795669 0.0050062775 0.0013055103 0.41513366 -0.89902568
3012500000 0.13966577 -0.78360295 0.3246032 0.67925847 0.0033085051 0.0010095827 0.41414666 -0.89739865
3025000000 0.13517074 -0.78346205 0.32626009 0.66812575 0.0054736636 -8.6156506e-005 0.41251907 -0.89996755
3037500000 0.13393685 -0.77842921 0.32403427 0.66167408 0.0049004946 0.00016327418 0.40382063 -0.89882189
3050000000 0.1322708 -0.77947152 0.32477713 0.65884036 0.0027601975 -0.0012770408 0.4083688 -0.90292311
3062500000 0.13411878 -0.77974838 0.32339379 0.65001839 0.0048536086 -0.00079069939 0.40082598 -0.90861511
3075000000 0.13433754 -0.78220612 0.32696977 0.6481241 0.0044182749 0.0010333287 0.40095925 -0.90743864
3087500000 0.12790018 -0.78372449 0.33139935 0.64192611 0.0044492567 0.00037450902 0.40237781 -0.91326874
3100000000 0.12275047 -0.78181005 0.32998946 0.63258386 0.0042411722 -0.00081710098 0.39574763 -0.90747905
3112500000 0.12129436 -0.77963257 0.32972541 0.63002253 0.0056495941 -0.00028862135 0.39541581 -0.90808898
3125000000 0.12217883 -0.77655411 0.33304864 0.62241042 0.0048345029 0.0011448726 0.39090642 -0.90936077
3137500000 0.12362962 -0.77764255 0.33154389 0.61844426 0.0049053337 0.00029692557 0.3890129 -0.90658689
3150000000 0.11957259 -0.7794944 0.33324119 0.61773497 0.0037782292 -0.0015196998 0.38261136 -0.91117501
3162500000 0.11423559 -0.78452778 0.3347486 0.60959971 0.0049226135 -0.0021543284 0.38431364 -0.91084629
3175000000 0.11365308 -0.78051144 0.33375958 0.60331601 0.0042582196 -0.0011407706 0.38023677 -0.91041702
3187500000 0.10663309 -0.78091341 0.33572757 0.59444356 0.0036640603 -0.0009207438 0.37918612 -0.91079962
3200000000 0.07831566 -0.78456372 0.33330157 0.58820891 0.0047073723 -0.00022910853 0.40375167 -0.89941561
3212500000 0.10273641 -0.77559459 0.33060411 0.58401978 0.0040905522 -0.00057368528 0.37407941 -0.90868926
3225000000 0.11357498 -0.77982205 0.33379665 0.58216977 0.0056856447 -0.0015167849 0.3738921 -0.91753566
3237500000 0.10617648 -0.78291225 0.33826712 0.57944238 0.003895764 -0.00083008391 0.36510777 -0.91553944
3250000000 0.10244489 -0.78195703 0.33792731 0.57190436 0.0034627432 -0.00026470478 0.35817996 -0.90849936
3262500000 0.095328137 -0.78213918 0.34031212 0.56459236 0.0042145527 -0.0024694738 0.36105356 -0.90645379
3275000000 0.095117576 -0.77765691 0.34148696 0.55852085 0.0033647111 -0.0023982574 0.36449879 -0.90825361
3287500000 0.096551217 -0.77408379 0.33551684 0.55504054 0.003506216 -0.00096324016 0.36006179 -0.90738487
3300000000 0.09783566 -0.77741158 0.33845699 0.55325079 0.004466204 -0.0015270103 0.35963517 -0.90771669
3312500000 0.094580077 -0.78018928 0.33777511 0.54878443 0.0023594662 -0.00082628359 0.35697302 -0.90894455
