!
! MAXIM INTEGRATED PRODUCTS
!
! MAX2686 Typical Scattering Parameters at Vcc=+2.85V,10MHz to 6GHz, TA = +25C
!
!Freq(MHz) DB (S11)	   DB (S21)	   DB (S12)	     DB (S22)
!	 Mag	 Phase	 Mag	Phase	 Mag	 Phase	   Mag	   Phase
!
# Hz S dB R 50
10000000	-7.475970e-001	4.451314e-001	-3.688723e+001	-9.026738e+001	-8.889258e+001	-1.431785e+002	-5.238733e-002	-7.704852e-001
13743750	-6.699765e-001	1.446281e-001	-3.414295e+001	-8.905788e+001	-8.436372e+001	-1.688427e+002	-5.435981e-002	-1.190763e+000
17487500	-6.794513e-001	-1.142020e-001	-3.213339e+001	-8.758599e+001	-8.142285e+001	1.121398e+002	-5.803725e-002	-1.296878e+000
21231250	-6.456159e-001	-1.997249e-001	-3.048686e+001	-8.712262e+001	-8.507165e+001	1.440986e+002	-6.240264e-002	-1.718240e+000
24975000	-6.321408e-001	-5.594730e-001	-2.902027e+001	-8.622195e+001	-8.286439e+001	1.605552e+002	-6.736786e-002	-1.846999e+000
28718750	-6.301098e-001	-8.492471e-001	-2.785065e+001	-8.552017e+001	-7.774468e+001	1.269169e+002	-8.506062e-002	-2.158229e+000
32462500	-6.207295e-001	-1.064189e+000	-2.667207e+001	-8.457500e+001	-8.329154e+001	1.395670e+002	-7.870766e-002	-2.388465e+000
36206250	-6.060526e-001	-1.303447e+000	-2.574218e+001	-8.396896e+001	-8.309953e+001	1.271036e+002	-7.428281e-002	-2.703819e+000
39950000	-6.026963e-001	-1.579255e+000	-2.479721e+001	-8.323100e+001	-8.313510e+001	1.176809e+002	-9.287394e-002	-2.835625e+000
43693750	-6.196336e-001	-1.834317e+000	-2.402059e+001	-8.253735e+001	-7.912234e+001	1.128527e+002	-7.999522e-002	-3.261626e+000
47437500	-6.033454e-001	-1.966209e+000	-2.319333e+001	-8.185797e+001	-7.945408e+001	9.501137e+001	-8.326410e-002	-3.356174e+000
51181250	-6.017730e-001	-2.160870e+000	-2.252647e+001	-8.123349e+001	-7.936980e+001	1.218340e+002	-8.575643e-002	-3.691972e+000
54925000	-5.975072e-001	-2.371313e+000	-2.179968e+001	-8.079240e+001	-8.179808e+001	1.036000e+002	-9.306451e-002	-3.923521e+000
58668750	-6.027059e-001	-2.583674e+000	-2.115449e+001	-8.007555e+001	-8.542163e+001	9.672812e+001	-1.033031e-001	-4.094244e+000
62412500	-6.094942e-001	-2.795598e+000	-2.053927e+001	-7.957932e+001	-7.740351e+001	9.657503e+001	-1.011710e-001	-4.471775e+000
66156250	-5.906268e-001	-3.049703e+000	-1.995259e+001	-7.895806e+001	-8.324771e+001	1.017581e+002	-9.813067e-002	-4.679247e+000
69900000	-5.952558e-001	-3.208179e+000	-1.947185e+001	-7.826617e+001	-7.880614e+001	9.503712e+001	-1.077185e-001	-4.891279e+000
73643750	-5.899687e-001	-3.427809e+000	-1.889268e+001	-7.790582e+001	-7.817360e+001	7.769281e+001	-9.908689e-002	-5.192775e+000
77387500	-5.942580e-001	-3.727377e+000	-1.844523e+001	-7.734778e+001	-7.750587e+001	8.755384e+001	-1.128982e-001	-5.402136e+000
81131250	-5.820896e-001	-3.871973e+000	-1.795365e+001	-7.711018e+001	-7.867719e+001	8.846043e+001	-1.147731e-001	-5.679606e+000
84875000	-5.943385e-001	-4.144836e+000	-1.747685e+001	-7.649247e+001	-7.954027e+001	8.761181e+001	-1.050726e-001	-5.954640e+000
88618750	-5.956327e-001	-4.353307e+000	-1.705272e+001	-7.587579e+001	-7.981678e+001	9.133710e+001	-1.176887e-001	-6.203731e+000
92362500	-5.982404e-001	-4.478827e+000	-1.662454e+001	-7.536998e+001	-7.755879e+001	5.647240e+001	-1.160063e-001	-6.490173e+000
96106250	-5.949337e-001	-4.737763e+000	-1.618698e+001	-7.477206e+001	-7.835486e+001	7.450327e+001	-1.155849e-001	-6.700349e+000
99850000	-5.834906e-001	-4.855742e+000	-1.577235e+001	-7.450971e+001	-7.951649e+001	8.833439e+001	-1.231897e-001	-6.921624e+000
103593750	-5.858882e-001	-5.098915e+000	-1.539647e+001	-7.386272e+001	-8.056391e+001	9.891507e+001	-1.347306e-001	-7.286090e+000
107337500	-5.868618e-001	-5.278833e+000	-1.500399e+001	-7.339989e+001	-7.770143e+001	8.642188e+001	-1.145643e-001	-7.501613e+000
111081250	-5.825616e-001	-5.499380e+000	-1.457961e+001	-7.259536e+001	-7.925215e+001	1.016706e+002	-1.232049e-001	-7.678528e+000
114825000	-5.987622e-001	-5.766118e+000	-1.424570e+001	-7.231817e+001	-7.812650e+001	8.202855e+001	-1.414203e-001	-7.974860e+000
118568750	-5.998862e-001	-6.028289e+000	-1.382247e+001	-7.176686e+001	-7.620856e+001	8.153818e+001	-1.550313e-001	-8.336480e+000
122312500	-6.124086e-001	-6.108418e+000	-1.346953e+001	-7.137725e+001	-8.012249e+001	7.548088e+001	-1.462387e-001	-8.479751e+000
126056250	-6.094529e-001	-6.395892e+000	-1.300606e+001	-7.088089e+001	-7.943753e+001	7.533803e+001	-1.374840e-001	-8.726166e+000
129800000	-6.104330e-001	-6.494997e+000	-1.257882e+001	-7.029285e+001	-7.901574e+001	8.026190e+001	-1.429170e-001	-8.934468e+000
133543750	-6.057665e-001	-6.785539e+000	-1.224080e+001	-7.016390e+001	-7.728755e+001	6.018749e+001	-1.376191e-001	-9.245117e+000
137287500	-6.256676e-001	-6.940698e+000	-1.184884e+001	-6.993635e+001	-8.016776e+001	8.101265e+001	-1.487553e-001	-9.485666e+000
141031250	-6.086730e-001	-7.060301e+000	-1.140548e+001	-6.965559e+001	-7.940441e+001	7.641417e+001	-1.630532e-001	-9.698127e+000
144775000	-6.372801e-001	-7.270516e+000	-1.108116e+001	-6.965032e+001	-8.091224e+001	6.760915e+001	-1.444782e-001	-9.885239e+000
148518750	-6.300257e-001	-7.477687e+000	-1.060701e+001	-6.913431e+001	-7.617463e+001	7.765731e+001	-1.633055e-001	-1.031779e+001
152262500	-6.074498e-001	-7.842144e+000	-1.026718e+001	-6.963442e+001	-7.570219e+001	8.122499e+001	-1.600935e-001	-1.053035e+001
156006250	-6.376203e-001	-7.954010e+000	-9.887467e+000	-6.917114e+001	-7.672804e+001	8.174188e+001	-1.586192e-001	-1.062501e+001
159750000	-6.376987e-001	-8.079513e+000	-9.438671e+000	-6.951708e+001	-7.734251e+001	5.993626e+001	-1.561389e-001	-1.087598e+001
163493750	-6.409391e-001	-8.258466e+000	-9.078296e+000	-7.022425e+001	-7.853444e+001	7.354372e+001	-1.870591e-001	-1.119575e+001
167237500	-6.330665e-001	-8.526227e+000	-8.738755e+000	-7.072299e+001	-7.936919e+001	8.197583e+001	-1.833292e-001	-1.155330e+001
170981250	-6.277039e-001	-8.599885e+000	-8.501068e+000	-7.068260e+001	-7.724748e+001	8.397656e+001	-1.960882e-001	-1.178486e+001
174725000	-6.552664e-001	-8.955405e+000	-8.137080e+000	-7.034207e+001	-7.836311e+001	8.078603e+001	-1.921160e-001	-1.196385e+001
178468750	-6.429159e-001	-8.906940e+000	-7.685206e+000	-6.982032e+001	-7.587063e+001	6.391503e+001	-1.925207e-001	-1.212320e+001
182212500	-6.452245e-001	-9.144681e+000	-7.277391e+000	-6.985530e+001	-7.776451e+001	7.634107e+001	-1.963830e-001	-1.246897e+001
185956250	-6.725758e-001	-9.360414e+000	-6.743072e+000	-7.001678e+001	-7.692353e+001	7.737805e+001	-1.917114e-001	-1.269992e+001
189700000	-6.383735e-001	-9.551725e+000	-6.230755e+000	-7.073408e+001	-8.112108e+001	7.021477e+001	-2.003196e-001	-1.306280e+001
193443750	-6.516277e-001	-9.875080e+000	-5.777405e+000	-7.086158e+001	-7.922626e+001	7.896645e+001	-2.100242e-001	-1.343622e+001
197187500	-6.762883e-001	-1.002242e+001	-5.231751e+000	-7.145654e+001	-7.776778e+001	7.587993e+001	-2.180908e-001	-1.349044e+001
200931250	-6.640025e-001	-1.016671e+001	-4.644426e+000	-7.265810e+001	-7.529263e+001	8.193874e+001	-2.212347e-001	-1.393647e+001
204675000	-6.601443e-001	-1.051036e+001	-4.087843e+000	-7.401205e+001	-7.820418e+001	7.450313e+001	-2.267946e-001	-1.398100e+001
208418750	-6.840377e-001	-1.073558e+001	-3.507108e+000	-7.570749e+001	-7.673565e+001	9.500970e+001	-2.301537e-001	-1.432852e+001
212162500	-6.755191e-001	-1.102100e+001	-2.948559e+000	-7.805877e+001	-7.587048e+001	1.108124e+002	-2.460858e-001	-1.461725e+001
215906250	-6.740775e-001	-1.118582e+001	-2.347437e+000	-8.120364e+001	-7.819938e+001	1.003827e+002	-2.586453e-001	-1.489481e+001
219650000	-6.989762e-001	-1.146045e+001	-1.808676e+000	-8.450128e+001	-7.960429e+001	1.027624e+002	-2.722641e-001	-1.508107e+001
223393750	-6.907203e-001	-1.165230e+001	-1.286820e+000	-8.929321e+001	-7.902529e+001	1.170462e+002	-2.953924e-001	-1.538423e+001
227137500	-7.230506e-001	-1.189220e+001	-9.299401e-001	-9.502042e+001	-7.627122e+001	1.168188e+002	-3.110200e-001	-1.548142e+001
230881250	-7.231806e-001	-1.210387e+001	-7.679515e-001	-1.017838e+002	-7.715526e+001	1.098179e+002	-3.166873e-001	-1.565550e+001
234625000	-7.380494e-001	-1.227265e+001	-8.220072e-001	-1.089343e+002	-7.350871e+001	1.251152e+002	-3.254134e-001	-1.576521e+001
238368750	-7.497140e-001	-1.235228e+001	-1.250342e+000	-1.159956e+002	-7.273670e+001	1.093047e+002	-3.274695e-001	-1.587241e+001
242112500	-7.740426e-001	-1.254007e+001	-1.980150e+000	-1.219978e+002	-7.093523e+001	9.866212e+001	-3.067567e-001	-1.605792e+001
245856250	-7.843040e-001	-1.268283e+001	-2.882490e+000	-1.261635e+002	-7.160374e+001	1.056789e+002	-3.070268e-001	-1.625077e+001
249600000	-7.909589e-001	-1.262482e+001	-3.863861e+000	-1.283415e+002	-7.331407e+001	9.700209e+001	-2.734418e-001	-1.649245e+001
253343750	-7.858362e-001	-1.289048e+001	-4.968875e+000	-1.286577e+002	-7.186056e+001	8.773965e+001	-2.896510e-001	-1.671597e+001
257087500	-8.064675e-001	-1.299427e+001	-5.976484e+000	-1.268710e+002	-7.328482e+001	9.512656e+001	-2.787132e-001	-1.694295e+001
260831250	-7.970390e-001	-1.313913e+001	-6.808686e+000	-1.233024e+002	-7.172475e+001	8.775596e+001	-2.778204e-001	-1.727895e+001
264575000	-8.068860e-001	-1.320036e+001	-7.429349e+000	-1.188140e+002	-7.253723e+001	8.214940e+001	-2.715972e-001	-1.751676e+001
268318750	-8.104625e-001	-1.334836e+001	-7.847190e+000	-1.134347e+002	-7.160458e+001	9.043451e+001	-2.690100e-001	-1.780166e+001
272062500	-8.035917e-001	-1.355066e+001	-7.973029e+000	-1.081660e+002	-7.326269e+001	8.089412e+001	-2.587474e-001	-1.818358e+001
275806250	-8.026385e-001	-1.364867e+001	-7.935866e+000	-1.028727e+002	-7.232995e+001	8.151642e+001	-2.578137e-001	-1.839109e+001
279550000	-8.108948e-001	-1.393227e+001	-7.752795e+000	-9.819935e+001	-7.171178e+001	7.137597e+001	-2.719516e-001	-1.868212e+001
283293750	-8.277652e-001	-1.387686e+001	-7.447167e+000	-9.429781e+001	-7.294906e+001	7.322135e+001	-2.699046e-001	-1.914574e+001
287037500	-8.103857e-001	-1.401294e+001	-7.051133e+000	-9.057510e+001	-7.189939e+001	7.687958e+001	-2.698660e-001	-1.928532e+001
290781250	-8.297183e-001	-1.440348e+001	-6.672500e+000	-8.822252e+001	-7.087006e+001	8.483313e+001	-2.692242e-001	-1.963677e+001
294525000	-8.244731e-001	-1.452475e+001	-6.225710e+000	-8.611013e+001	-7.217971e+001	7.408070e+001	-2.954752e-001	-1.986252e+001
298268750	-8.403189e-001	-1.462817e+001	-5.789325e+000	-8.401783e+001	-7.353566e+001	7.043373e+001	-2.898292e-001	-2.027081e+001
302012500	-8.596236e-001	-1.489958e+001	-5.362892e+000	-8.271680e+001	-7.246045e+001	6.766154e+001	-2.938910e-001	-2.022346e+001
305756250	-8.297410e-001	-1.506950e+001	-4.882556e+000	-8.164275e+001	-7.222405e+001	6.997072e+001	-3.130632e-001	-2.069120e+001
309500000	-8.382313e-001	-1.532354e+001	-4.445798e+000	-8.084593e+001	-7.410053e+001	6.191418e+001	-3.081887e-001	-2.103816e+001
313243750	-8.326668e-001	-1.522238e+001	-4.005212e+000	-7.999936e+001	-7.240527e+001	6.912042e+001	-2.968657e-001	-2.117278e+001
316987500	-8.559630e-001	-1.541847e+001	-3.623833e+000	-7.945811e+001	-7.457252e+001	6.148736e+001	-3.039716e-001	-2.155835e+001
320731250	-8.539601e-001	-1.565055e+001	-3.189334e+000	-7.957772e+001	-7.456874e+001	6.334818e+001	-3.190526e-001	-2.179670e+001
324475000	-8.556631e-001	-1.570418e+001	-2.780382e+000	-7.946803e+001	-7.252679e+001	6.108057e+001	-3.340972e-001	-2.206707e+001
328218750	-8.936997e-001	-1.600405e+001	-2.403727e+000	-7.953178e+001	-7.319433e+001	5.734207e+001	-3.364898e-001	-2.248776e+001
331962500	-8.445470e-001	-1.618610e+001	-1.975165e+000	-7.966550e+001	-7.338746e+001	5.375844e+001	-3.332923e-001	-2.256425e+001
335706250	-8.722886e-001	-1.627391e+001	-1.580991e+000	-8.030036e+001	-7.331309e+001	4.911056e+001	-3.502240e-001	-2.307224e+001
339450000	-8.923403e-001	-1.664107e+001	-1.205823e+000	-8.097794e+001	-7.602063e+001	5.955919e+001	-3.675287e-001	-2.331425e+001
343193750	-8.816480e-001	-1.674696e+001	-8.384574e-001	-8.145325e+001	-7.540802e+001	5.552152e+001	-3.827629e-001	-2.362913e+001
346937500	-8.674169e-001	-1.696610e+001	-4.418239e-001	-8.245650e+001	-7.588431e+001	3.950247e+001	-3.914012e-001	-2.381431e+001
350681250	-8.608614e-001	-1.722709e+001	-6.536378e-002	-8.341972e+001	-7.418058e+001	5.124123e+001	-3.873634e-001	-2.410956e+001
354425000	-8.839751e-001	-1.739072e+001	2.416767e-001	-8.452968e+001	-7.636065e+001	3.733682e+001	-3.964934e-001	-2.435055e+001
358168750	-8.662804e-001	-1.745581e+001	6.087987e-001	-8.576394e+001	-7.630251e+001	4.188777e+001	-4.244378e-001	-2.471772e+001
361912500	-8.763212e-001	-1.753536e+001	9.277430e-001	-8.693092e+001	-7.544519e+001	3.157677e+001	-4.613722e-001	-2.498561e+001
365656250	-9.002610e-001	-1.797581e+001	1.223180e+000	-8.851130e+001	-7.681239e+001	2.067004e+001	-4.630350e-001	-2.515081e+001
369400000	-8.841554e-001	-1.796870e+001	1.554015e+000	-8.989946e+001	-7.964909e+001	1.461051e+001	-4.865866e-001	-2.539416e+001
373143750	-8.908023e-001	-1.824771e+001	1.836640e+000	-9.171308e+001	-7.753874e+001	-6.983382e+000	-4.922046e-001	-2.568530e+001
376887500	-8.914451e-001	-1.855150e+001	2.056512e+000	-9.358082e+001	-7.940715e+001	1.516551e-001	-5.058484e-001	-2.592179e+001
380631250	-8.812858e-001	-1.853750e+001	2.329302e+000	-9.539730e+001	-7.822118e+001	-1.305621e+001	-5.252152e-001	-2.612200e+001
384375000	-9.132610e-001	-1.884275e+001	2.491146e+000	-9.746518e+001	-7.987329e+001	-1.239400e+001	-5.442116e-001	-2.634982e+001
388118750	-8.883839e-001	-1.909126e+001	2.733827e+000	-9.957480e+001	-8.106618e+001	-6.536468e+001	-5.752437e-001	-2.664465e+001
391862500	-8.947575e-001	-1.913881e+001	2.911909e+000	-1.018038e+002	-8.240315e+001	-6.499454e+001	-5.893700e-001	-2.689783e+001
395606250	-8.838026e-001	-1.948935e+001	3.046683e+000	-1.039790e+002	-8.195099e+001	-6.073686e+001	-6.007829e-001	-2.705757e+001
399350000	-8.832711e-001	-1.961296e+001	3.179366e+000	-1.060627e+002	-7.868156e+001	-9.300690e+001	-6.082453e-001	-2.711008e+001
403093750	-8.828477e-001	-1.971411e+001	3.269258e+000	-1.080324e+002	-7.690439e+001	-7.636674e+001	-6.348695e-001	-2.746359e+001
406837500	-8.983917e-001	-2.002055e+001	3.327066e+000	-1.103177e+002	-7.662234e+001	-1.081496e+002	-6.340993e-001	-2.747413e+001
410581250	-9.237650e-001	-2.032831e+001	3.315296e+000	-1.124552e+002	-7.639271e+001	-1.176906e+002	-6.620362e-001	-2.767666e+001
414325000	-9.212791e-001	-2.041933e+001	3.357999e+000	-1.147345e+002	-7.487690e+001	-1.309958e+002	-6.848427e-001	-2.786750e+001
418068750	-9.242299e-001	-2.061969e+001	3.358867e+000	-1.167246e+002	-7.470254e+001	-1.335050e+002	-6.844633e-001	-2.809168e+001
421812500	-9.209865e-001	-2.099625e+001	3.304214e+000	-1.189651e+002	-7.224576e+001	-1.326911e+002	-6.999935e-001	-2.819971e+001
425556250	-9.398377e-001	-2.106013e+001	3.243307e+000	-1.205282e+002	-7.215714e+001	-1.326653e+002	-7.217764e-001	-2.831064e+001
429300000	-9.280254e-001	-2.126651e+001	3.193309e+000	-1.225992e+002	-7.200430e+001	-1.334344e+002	-6.966347e-001	-2.851853e+001
433043750	-9.668635e-001	-2.139107e+001	3.120472e+000	-1.241379e+002	-7.133603e+001	-1.452141e+002	-7.102396e-001	-2.869684e+001
436787500	-9.481403e-001	-2.163275e+001	3.013807e+000	-1.254692e+002	-7.087200e+001	-1.492775e+002	-7.310958e-001	-2.868542e+001
440531250	-9.562761e-001	-2.178817e+001	2.956977e+000	-1.272824e+002	-7.057802e+001	-1.505136e+002	-7.245094e-001	-2.901151e+001
444275000	-9.561594e-001	-2.204811e+001	2.826436e+000	-1.286079e+002	-6.959373e+001	-1.575457e+002	-7.149643e-001	-2.922717e+001
448018750	-9.779700e-001	-2.227887e+001	2.704148e+000	-1.298896e+002	-6.962012e+001	-1.510298e+002	-7.336528e-001	-2.944432e+001
451762500	-9.873378e-001	-2.239461e+001	2.617823e+000	-1.306642e+002	-7.003950e+001	-1.634740e+002	-7.280540e-001	-2.952166e+001
455506250	-9.976799e-001	-2.249339e+001	2.494820e+000	-1.317809e+002	-6.809760e+001	-1.599199e+002	-7.052169e-001	-2.984307e+001
459250000	-9.877602e-001	-2.283495e+001	2.363163e+000	-1.328059e+002	-6.798696e+001	-1.615096e+002	-7.341927e-001	-2.986195e+001
462993750	-1.031580e+000	-2.288918e+001	2.217517e+000	-1.335113e+002	-6.901973e+001	-1.664132e+002	-7.160741e-001	-3.015847e+001
466737500	-1.024612e+000	-2.308919e+001	2.089865e+000	-1.340452e+002	-6.750647e+001	-1.692852e+002	-7.061706e-001	-3.029419e+001
470481250	-1.014761e+000	-2.291749e+001	1.969587e+000	-1.342111e+002	-6.783817e+001	-1.670662e+002	-7.260917e-001	-3.044820e+001
474225000	-1.042618e+000	-2.316679e+001	1.819151e+000	-1.347587e+002	-6.733476e+001	-1.658749e+002	-7.252351e-001	-3.076139e+001
477968750	-1.058326e+000	-2.332831e+001	1.679404e+000	-1.355244e+002	-6.704892e+001	-1.737496e+002	-7.352419e-001	-3.102752e+001
481712500	-1.041742e+000	-2.364605e+001	1.550495e+000	-1.355217e+002	-6.702442e+001	-1.740070e+002	-7.383475e-001	-3.111587e+001
485456250	-1.086762e+000	-2.356620e+001	1.408248e+000	-1.355286e+002	-6.649829e+001	1.798197e+002	-7.076644e-001	-3.135670e+001
489200000	-1.092066e+000	-2.405375e+001	1.283919e+000	-1.359526e+002	-6.669227e+001	1.780538e+002	-7.245155e-001	-3.158335e+001
492943750	-1.076798e+000	-2.426252e+001	1.202848e+000	-1.360933e+002	-6.681448e+001	-1.776729e+002	-6.928359e-001	-3.185437e+001
496687500	-1.099799e+000	-2.430326e+001	1.075932e+000	-1.357501e+002	-6.564701e+001	1.778396e+002	-7.325110e-001	-3.203707e+001
500431250	-1.121348e+000	-2.446469e+001	1.016344e+000	-1.356465e+002	-6.679362e+001	-1.780714e+002	-7.073267e-001	-3.237323e+001
504175000	-1.087238e+000	-2.467202e+001	9.997263e-001	-1.354761e+002	-6.648368e+001	-1.798094e+002	-7.328574e-001	-3.252642e+001
507918750	-1.124335e+000	-2.468731e+001	9.513010e-001	-1.353511e+002	-6.605196e+001	-1.752647e+002	-7.372220e-001	-3.285332e+001
511662500	-1.141770e+000	-2.499336e+001	9.503638e-001	-1.354312e+002	-6.609004e+001	-1.751917e+002	-7.259062e-001	-3.308707e+001
515406250	-1.138887e+000	-2.496875e+001	9.181849e-001	-1.354281e+002	-6.544631e+001	-1.750342e+002	-7.237911e-001	-3.334463e+001
519150000	-1.127174e+000	-2.536445e+001	8.698413e-001	-1.358979e+002	-6.534401e+001	-1.749509e+002	-7.214492e-001	-3.362736e+001
522893750	-1.178749e+000	-2.542385e+001	7.916916e-001	-1.358917e+002	-6.461653e+001	-1.731179e+002	-7.462916e-001	-3.376531e+001
526637500	-1.143570e+000	-2.544931e+001	8.038889e-001	-1.357084e+002	-6.434971e+001	-1.792321e+002	-7.422608e-001	-3.394218e+001
530381250	-1.153280e+000	-2.567489e+001	7.513216e-001	-1.358261e+002	-6.434203e+001	-1.786581e+002	-7.308183e-001	-3.421073e+001
534125000	-1.157031e+000	-2.581159e+001	7.147505e-001	-1.358210e+002	-6.346803e+001	1.770450e+002	-7.444919e-001	-3.451288e+001
537868750	-1.183281e+000	-2.604995e+001	6.587470e-001	-1.358520e+002	-6.367788e+001	1.766363e+002	-7.306632e-001	-3.473296e+001
541612500	-1.200846e+000	-2.624637e+001	6.186129e-001	-1.357827e+002	-6.372050e+001	1.756304e+002	-7.672850e-001	-3.494221e+001
545356250	-1.188310e+000	-2.631534e+001	6.169079e-001	-1.356860e+002	-6.317611e+001	1.741757e+002	-7.311553e-001	-3.517404e+001
549100000	-1.221440e+000	-2.645817e+001	5.944040e-001	-1.353232e+002	-6.321226e+001	1.763890e+002	-7.568156e-001	-3.550211e+001
552843750	-1.209989e+000	-2.653532e+001	5.716679e-001	-1.349756e+002	-6.283166e+001	1.740828e+002	-7.569533e-001	-3.568105e+001
556587500	-1.228344e+000	-2.658835e+001	5.574883e-001	-1.346573e+002	-6.278208e+001	1.798005e+002	-7.614519e-001	-3.596003e+001
560331250	-1.219227e+000	-2.682704e+001	5.293812e-001	-1.347235e+002	-6.299757e+001	1.769083e+002	-7.588082e-001	-3.627676e+001
564075000	-1.235483e+000	-2.709424e+001	4.777608e-001	-1.341861e+002	-6.246828e+001	1.753359e+002	-7.673404e-001	-3.647308e+001
567818750	-1.279883e+000	-2.736390e+001	4.374197e-001	-1.341318e+002	-6.217586e+001	1.755929e+002	-7.695628e-001	-3.675173e+001
571562500	-1.256984e+000	-2.726376e+001	4.836491e-001	-1.338275e+002	-6.235180e+001	1.747212e+002	-7.845119e-001	-3.684634e+001
575306250	-1.239196e+000	-2.756621e+001	4.778787e-001	-1.335556e+002	-6.225895e+001	1.746300e+002	-7.892681e-001	-3.709335e+001
579050000	-1.271608e+000	-2.777819e+001	4.539740e-001	-1.331396e+002	-6.133980e+001	1.716648e+002	-7.947382e-001	-3.756984e+001
