!
! MAXIM INTEGRATED PRODUCTS
!
! MAX2659 GPS/GNSS Low-Noise Amplifier
!
! MAX2659 Typical Scattering Parameters at Vcc=+2.85V, 100KHz to 3GHz, TA = +25C 
!
! Notes: This data is measured using MAX2659 EV KIT. 
!	 	 The measurements are referenced at the input and ouput pins of the IC using De-embedding  
!
# Hz S dB R 50
100000	-1.432656e+000	-2.352016e-002	-5.198011e+001	-1.193923e+002	-4.763868e+001	-8.827453e+000	6.862465e-002	-5.324206e-002
1974938	-1.276571e+000	9.189828e-001	-4.095406e+001	-8.385920e+001	-4.760255e+001	1.460175e+002	-3.027889e-002	-1.086040e-001
3849875	-1.147933e+000	1.495787e+000	-4.319099e+001	-1.236391e+002	-4.975400e+001	-1.837211e+001	5.036153e-002	-1.830333e-001
5724813	-1.067830e+000	1.376274e+000	-4.450852e+001	-9.445173e+001	-4.764609e+001	1.348674e+001	-1.777305e-004	-3.180290e-001
7599750	-1.006319e+000	1.166064e+000	-3.659974e+001	-1.028990e+002	-4.896883e+001	-6.246167e+001	2.670832e-002	-4.187766e-001
9474688	-9.679635e-001	1.060440e+000	-3.554334e+001	-8.885811e+001	-7.033235e+001	5.090147e+001	4.790759e-003	-2.936040e-001
11349625	-9.717737e-001	1.053107e+000	-3.376333e+001	-9.129106e+001	-7.117782e+001	1.755935e+002	9.652939e-003	-3.778101e-001
13224563	-9.705084e-001	9.298229e-001	-3.264231e+001	-9.066330e+001	-6.882418e+001	-1.169257e+002	-8.661259e-003	-7.045201e-001
15099500	-9.697281e-001	8.850865e-001	-3.126653e+001	-9.158061e+001	-6.469769e+001	-1.342088e+001	1.493692e-004	-5.709530e-001
16974438	-9.600430e-001	7.534155e-001	-3.038669e+001	-9.195206e+001	-7.999177e+001	-1.149648e+002	5.513074e-003	-9.232322e-001
18849375	-9.935095e-001	6.811210e-001	-2.947515e+001	-9.087112e+001	-7.139557e+001	2.480374e+001	3.006153e-003	-8.609846e-001
20724313	-9.454500e-001	3.396015e-001	-2.873693e+001	-9.179524e+001	-6.759738e+001	2.559260e+001	2.710123e-002	-9.748759e-001
22599250	-9.302655e-001	3.127836e-001	-2.788322e+001	-9.233348e+001	-6.397819e+001	1.745948e+002	1.729202e-002	-1.105840e+000
24474188	-9.561276e-001	3.995187e-001	-2.715408e+001	-9.083699e+001	-7.004087e+001	-1.135899e+002	-1.909949e-003	-9.860213e-001
26349125	-9.477007e-001	3.007355e-001	-2.666490e+001	-9.151257e+001	-6.589981e+001	-2.210491e+001	-5.719977e-003	-9.901088e-001
28224063	-9.779314e-001	1.853636e-001	-2.614645e+001	-9.186378e+001	-7.049304e+001	1.477947e+002	1.149359e-002	-1.237887e+000
30099000	-9.526831e-001	-9.678072e-003	-2.564350e+001	-9.191747e+001	-6.112188e+001	-1.199116e+002	-4.356381e-005	-1.203704e+000
31973938	-9.402373e-001	-2.326633e-002	-2.510339e+001	-9.191745e+001	-6.421540e+001	-1.466260e+002	-1.627334e-002	-1.201358e+000
33848875	-9.108890e-001	-1.147270e-001	-2.457651e+001	-9.259978e+001	-7.207029e+001	-1.285252e+002	1.481247e-002	-1.345074e+000
35723813	-9.158812e-001	-3.291357e-001	-2.419114e+001	-9.197890e+001	-6.375765e+001	-1.730489e+002	-4.637421e-002	-1.355685e+000
37598750	-9.350428e-001	-3.966448e-001	-2.367699e+001	-9.259124e+001	-5.995964e+001	9.501888e+001	-1.907437e-002	-1.629395e+000
39473688	-9.035086e-001	-5.842081e-001	-2.331341e+001	-9.242500e+001	-7.102659e+001	-7.998601e+001	-2.625071e-002	-1.479775e+000
41348625	-9.208244e-001	-5.589629e-001	-2.286942e+001	-9.247278e+001	-6.161092e+001	1.101638e+002	-1.520077e-002	-1.606594e+000
43223563	-9.155378e-001	-7.684784e-001	-2.238452e+001	-9.265695e+001	-6.414784e+001	1.104916e+002	-4.043539e-002	-1.694308e+000
45098500	-9.045890e-001	-8.246804e-001	-2.218129e+001	-9.309531e+001	-6.754449e+001	1.306299e+002	-8.531392e-003	-1.653689e+000
46973438	-9.009530e-001	-1.085865e+000	-2.180479e+001	-9.305272e+001	-6.497499e+001	3.347742e+001	-1.805534e-002	-2.205608e+000
48848375	-9.348683e-001	-1.003010e+000	-2.152825e+001	-9.372878e+001	-6.870410e+001	-3.675504e+001	-2.344013e-002	-1.948996e+000
50723313	-8.905726e-001	-1.185078e+000	-2.113842e+001	-9.336900e+001	-7.944807e+001	-1.591889e+002	-1.051672e-002	-2.127666e+000
52598250	-9.048952e-001	-1.195561e+000	-2.089392e+001	-9.373067e+001	-6.926884e+001	-7.718722e+001	-1.575332e-002	-2.198955e+000
54473188	-8.975750e-001	-1.367155e+000	-2.056273e+001	-9.413308e+001	-7.135792e+001	-5.071212e+001	-3.271471e-002	-2.107717e+000
56348125	-9.037737e-001	-1.454457e+000	-2.021819e+001	-9.365559e+001	-7.457610e+001	1.452205e+002	-1.499754e-002	-2.347758e+000
58223063	-9.056105e-001	-1.453962e+000	-2.002235e+001	-9.392540e+001	-6.388101e+001	-7.568400e+001	-3.616039e-002	-2.494971e+000
60098000	-8.880205e-001	-1.578689e+000	-1.970881e+001	-9.421099e+001	-6.424839e+001	-5.617505e+001	-1.248222e-002	-2.400900e+000
61972938	-8.801814e-001	-1.736681e+000	-1.951541e+001	-9.442249e+001	-6.595415e+001	9.779217e+001	-3.745659e-002	-2.521991e+000
63847875	-9.037827e-001	-1.844085e+000	-1.923074e+001	-9.467951e+001	-7.277299e+001	-1.530966e+002	-2.218997e-002	-2.610288e+000
65722813	-8.913091e-001	-1.923959e+000	-1.909010e+001	-9.448765e+001	-6.877765e+001	9.764464e+001	-5.142862e-002	-2.624295e+000
67597750	-8.839969e-001	-2.099762e+000	-1.878044e+001	-9.461000e+001	-6.495376e+001	-9.237196e+001	-4.306860e-002	-2.814619e+000
69472688	-8.830503e-001	-2.168651e+000	-1.857203e+001	-9.505937e+001	-6.169017e+001	1.116581e+002	-4.447138e-002	-2.764679e+000
71347625	-8.739939e-001	-2.317963e+000	-1.842428e+001	-9.477242e+001	-6.365992e+001	1.159485e+002	-2.186475e-002	-3.003876e+000
73222563	-8.609238e-001	-2.214286e+000	-1.817054e+001	-9.478230e+001	-6.627836e+001	1.233169e+002	-2.806194e-002	-3.011052e+000
75097500	-8.707303e-001	-2.414289e+000	-1.804588e+001	-9.526504e+001	-7.190958e+001	-1.215329e+002	-3.734175e-002	-3.041371e+000
76972438	-8.695256e-001	-2.468240e+000	-1.778540e+001	-9.560717e+001	-8.489191e+001	-1.427694e+002	-4.804849e-002	-3.164783e+000
78847375	-8.633969e-001	-2.610810e+000	-1.761617e+001	-9.515781e+001	-6.459962e+001	6.573814e+001	-3.221124e-002	-3.186198e+000
80722313	-8.713950e-001	-2.749006e+000	-1.737443e+001	-9.565031e+001	-7.553520e+001	1.725882e+001	-2.952626e-002	-3.208961e+000
82597250	-8.739364e-001	-2.829646e+000	-1.724347e+001	-9.542702e+001	-6.494338e+001	-2.121674e+001	-2.434635e-002	-3.435649e+000
84472188	-8.527078e-001	-2.911092e+000	-1.707848e+001	-9.558890e+001	-7.271172e+001	-2.325501e+001	-3.612698e-002	-3.541949e+000
86347125	-8.735862e-001	-2.995338e+000	-1.689312e+001	-9.584048e+001	-6.367948e+001	2.441918e+001	-4.608981e-002	-3.444858e+000
88222063	-8.643432e-001	-3.147981e+000	-1.680985e+001	-9.555342e+001	-6.295797e+001	-1.202436e+002	-3.816235e-002	-3.485410e+000
90097000	-8.478612e-001	-3.123724e+000	-1.656132e+001	-9.621383e+001	-7.543306e+001	-4.322991e+001	-2.608349e-002	-3.630463e+000
91971938	-8.387129e-001	-3.307143e+000	-1.641722e+001	-9.595061e+001	-7.838259e+001	6.806854e+000	-4.539456e-002	-3.661332e+000
93846875	-8.452842e-001	-3.460523e+000	-1.630821e+001	-9.629514e+001	-6.955257e+001	4.375093e+001	-3.677504e-002	-3.908106e+000
95721813	-8.678100e-001	-3.618040e+000	-1.611511e+001	-9.580991e+001	-6.663156e+001	-1.466712e+002	-4.005860e-002	-3.720950e+000
97596750	-8.529677e-001	-3.604523e+000	-1.603217e+001	-9.603539e+001	-6.216075e+001	7.026123e+001	-3.600664e-002	-3.943063e+000
99471688	-8.214970e-001	-3.680849e+000	-1.584960e+001	-9.626681e+001	-6.665179e+001	7.156272e+001	-6.550433e-002	-3.919289e+000
101346625	-8.474068e-001	-3.854962e+000	-1.575665e+001	-9.633417e+001	-6.274689e+001	-1.570824e+002	-5.130749e-002	-4.054539e+000
103221563	-8.318166e-001	-3.865674e+000	-1.560001e+001	-9.605236e+001	-7.182482e+001	8.348642e+001	-5.279561e-002	-4.083023e+000
105096500	-8.502354e-001	-3.824971e+000	-1.546010e+001	-9.617598e+001	-6.646628e+001	-1.093271e+002	-4.758342e-002	-4.218311e+000
106971438	-8.128759e-001	-4.047569e+000	-1.536890e+001	-9.630999e+001	-7.172298e+001	-1.746714e+002	-3.976194e-002	-4.181926e+000
108846375	-8.194333e-001	-4.158087e+000	-1.522288e+001	-9.639004e+001	-6.524045e+001	8.244541e+001	-4.096495e-002	-4.455401e+000
110721313	-8.380525e-001	-4.301112e+000	-1.504131e+001	-9.621586e+001	-7.770111e+001	-7.380152e+001	-5.819671e-002	-4.547209e+000
112596250	-8.267510e-001	-4.387008e+000	-1.499216e+001	-9.656253e+001	-7.020077e+001	1.204985e+002	-4.331299e-002	-4.408349e+000
114471188	-8.146812e-001	-4.602406e+000	-1.484019e+001	-9.638383e+001	-6.416951e+001	8.995112e+001	-5.606777e-002	-4.603840e+000
116346125	-8.232625e-001	-4.535108e+000	-1.464529e+001	-9.674397e+001	-6.147049e+001	3.264821e+001	-5.162623e-002	-4.725195e+000
118221063	-8.265463e-001	-4.671596e+000	-1.460470e+001	-9.645908e+001	-6.520532e+001	-8.387977e+001	-3.396130e-002	-4.686092e+000
120096000	-8.197855e-001	-4.462751e+000	-1.447083e+001	-9.657666e+001	-6.794232e+001	-1.105312e+002	-6.546364e-002	-4.786656e+000
121970938	-8.287627e-001	-4.784149e+000	-1.431678e+001	-9.670321e+001	-6.393994e+001	3.419706e+000	-4.185745e-002	-4.821400e+000
123845875	-8.017668e-001	-4.960617e+000	-1.417051e+001	-9.683052e+001	-8.993581e+001	9.885697e+001	-5.124501e-002	-4.869347e+000
125720813	-8.302022e-001	-5.063725e+000	-1.411160e+001	-9.682673e+001	-7.219973e+001	-1.420608e+002	-4.740462e-002	-5.047426e+000
127595750	-8.094076e-001	-5.224452e+000	-1.404252e+001	-9.667583e+001	-6.676944e+001	-1.519101e+002	-6.337982e-002	-5.096030e+000
129470688	-8.253594e-001	-5.265775e+000	-1.398632e+001	-9.698599e+001	-7.071365e+001	-1.683050e+000	-7.036215e-002	-5.215243e+000
131345625	-8.441299e-001	-5.306279e+000	-1.379425e+001	-9.666017e+001	-6.344022e+001	7.312195e+001	-1.110865e-001	-5.234608e+000
133220563	-8.559289e-001	-5.423978e+000	-1.368945e+001	-9.661752e+001	-6.653719e+001	-1.054897e+002	-7.998624e-002	-5.296776e+000
135095500	-8.150347e-001	-5.239587e+000	-1.359656e+001	-9.683149e+001	-6.474026e+001	1.040552e+002	-6.541341e-002	-5.246664e+000
136970438	-7.864634e-001	-5.736779e+000	-1.341421e+001	-9.746931e+001	-6.348228e+001	-1.456836e+002	-6.544399e-002	-5.303106e+000
138845375	-7.768316e-001	-5.761988e+000	-1.335002e+001	-9.737945e+001	-5.730414e+001	5.048899e+001	-5.450386e-002	-5.684864e+000
140720313	-7.994874e-001	-5.646293e+000	-1.323459e+001	-9.637784e+001	-7.552740e+001	1.144628e+002	-6.900170e-002	-5.384733e+000
142595250	-8.146563e-001	-5.791879e+000	-1.311274e+001	-9.668377e+001	-6.854613e+001	-2.129004e+000	-3.368577e-002	-5.665714e+000
144470188	-7.553546e-001	-6.074827e+000	-1.300482e+001	-9.713778e+001	-7.642214e+001	1.510121e+002	-6.370343e-002	-5.590596e+000
146345125	-7.737163e-001	-5.953772e+000	-1.293535e+001	-9.699094e+001	-6.565022e+001	1.038447e+002	-5.045058e-002	-5.796314e+000
148220063	-7.675811e-001	-6.142492e+000	-1.282363e+001	-9.696224e+001	-8.240381e+001	-1.454973e+002	-1.049501e-001	-5.780676e+000
150095000	-8.016349e-001	-6.325276e+000	-1.270251e+001	-9.711060e+001	-6.821823e+001	-1.518821e+002	-5.527742e-002	-5.826420e+000
151969938	-7.971632e-001	-6.318751e+000	-1.261995e+001	-9.683773e+001	-6.764771e+001	1.428565e+002	-7.297720e-002	-5.933559e+000
153844875	-7.853589e-001	-6.364011e+000	-1.255004e+001	-9.715654e+001	-6.121535e+001	-7.670792e+000	-7.188255e-002	-6.189408e+000
155719813	-8.105324e-001	-6.807764e+000	-1.246114e+001	-9.722250e+001	-6.541831e+001	-4.332775e+001	-8.721340e-002	-6.072211e+000
157594750	-7.849698e-001	-6.686000e+000	-1.239130e+001	-9.711321e+001	-6.705836e+001	2.909967e+001	-8.287456e-002	-6.037166e+000
159469688	-7.609111e-001	-6.907211e+000	-1.223374e+001	-9.709817e+001	-6.773068e+001	2.915355e+001	-5.722503e-002	-6.254098e+000
161344625	-7.722976e-001	-6.814637e+000	-1.216036e+001	-9.719015e+001	-6.186710e+001	1.359552e+002	-8.286233e-002	-6.305922e+000
163219563	-8.004875e-001	-6.860573e+000	-1.201522e+001	-9.723116e+001	-6.741969e+001	4.377267e+000	-1.004055e-001	-6.282941e+000
165094500	-8.141280e-001	-7.311641e+000	-1.197699e+001	-9.718030e+001	-7.019415e+001	4.151534e+001	-5.376516e-002	-6.338296e+000
166969438	-7.989870e-001	-7.024148e+000	-1.184803e+001	-9.700386e+001	-6.701969e+001	-5.715218e+001	-1.028073e-001	-6.579237e+000
168844375	-7.827414e-001	-7.521495e+000	-1.175060e+001	-9.761954e+001	-6.803859e+001	-1.205219e+002	-6.541562e-002	-6.644926e+000
170719313	-7.970283e-001	-7.416754e+000	-1.157656e+001	-9.764707e+001	-6.802684e+001	-1.009610e+002	-8.977102e-002	-6.651776e+000
172594250	-7.975207e-001	-7.223717e+000	-1.157604e+001	-9.697343e+001	-6.595109e+001	-1.691533e+002	-9.611317e-002	-7.029655e+000
174469188	-8.097758e-001	-7.647519e+000	-1.146474e+001	-9.741764e+001	-7.374930e+001	-6.149437e+001	-1.205007e-001	-6.931637e+000
176344125	-8.239948e-001	-7.724617e+000	-1.131429e+001	-9.744969e+001	-7.163069e+001	9.863341e+001	-9.000872e-002	-6.971286e+000
178219063	-7.818105e-001	-7.681285e+000	-1.121002e+001	-9.760162e+001	-8.002349e+001	7.139448e+001	-7.492743e-002	-7.081581e+000
180094000	-8.053098e-001	-8.118140e+000	-1.114974e+001	-9.793259e+001	-6.527546e+001	-5.400988e+001	-4.614504e-002	-7.327187e+000
181968938	-7.976387e-001	-7.962454e+000	-1.095900e+001	-9.812034e+001	-6.794520e+001	1.685267e+002	-9.873274e-002	-7.310453e+000
183843875	-8.119069e-001	-8.332565e+000	-1.083838e+001	-9.786204e+001	-6.388252e+001	1.601216e-001	-8.324585e-002	-7.184886e+000
185718813	-8.060942e-001	-8.226254e+000	-1.076299e+001	-9.805491e+001	-6.222040e+001	7.383781e+001	-8.908452e-002	-6.978754e+000
187593750	-8.266211e-001	-8.270867e+000	-1.069971e+001	-9.814215e+001	-6.630814e+001	-4.016326e+001	-9.317318e-002	-7.344866e+000
189468688	-7.938883e-001	-8.457369e+000	-1.057764e+001	-9.840936e+001	-8.103534e+001	3.380108e+001	-7.580720e-002	-7.264375e+000
191343625	-8.118604e-001	-8.571529e+000	-1.041965e+001	-9.840747e+001	-6.625657e+001	1.625019e+002	-8.890600e-002	-7.472823e+000
193218563	-8.317631e-001	-8.590607e+000	-1.034550e+001	-9.846669e+001	-6.886081e+001	1.341296e+002	-1.115522e-001	-7.759013e+000
195093500	-8.418523e-001	-8.639937e+000	-1.024270e+001	-9.866829e+001	-6.398097e+001	7.566313e+001	-8.220399e-002	-7.645142e+000
196968438	-8.095043e-001	-8.999219e+000	-1.012172e+001	-9.876024e+001	-7.336754e+001	-1.756522e+002	-9.435762e-002	-7.807987e+000
198843375	-8.214684e-001	-8.866889e+000	-1.006620e+001	-9.901758e+001	-7.274080e+001	-7.043836e+001	-7.749519e-002	-7.799721e+000
200718313	-8.487493e-001	-8.896551e+000	-9.897222e+000	-9.901614e+001	-7.183808e+001	1.427005e+002	-6.890753e-002	-7.703503e+000
202593250	-8.398045e-001	-9.078922e+000	-9.790450e+000	-9.937209e+001	-6.396358e+001	-9.046994e+000	-9.283404e-002	-7.812762e+000
204468188	-8.444581e-001	-9.181524e+000	-9.803274e+000	-9.944653e+001	-7.177711e+001	-5.535314e+001	-1.150078e-001	-8.092741e+000
206343125	-8.619704e-001	-9.187930e+000	-9.662954e+000	-9.937929e+001	-7.831845e+001	-9.393482e+001	-1.054058e-001	-8.087351e+000
208218063	-8.337966e-001	-9.371163e+000	-9.618002e+000	-9.992386e+001	-6.655182e+001	1.320966e+002	-1.166649e-001	-8.307251e+000
210093000	-8.153330e-001	-9.385219e+000	-9.507389e+000	-9.981790e+001	-6.886292e+001	1.360735e+002	-1.173341e-001	-8.259730e+000
211967938	-8.336736e-001	-9.638240e+000	-9.449155e+000	-9.954823e+001	-7.542397e+001	7.467205e+000	-1.002488e-001	-8.216117e+000
213842875	-8.315338e-001	-9.737136e+000	-9.407142e+000	-9.978961e+001	-6.832623e+001	7.638589e+000	-1.187278e-001	-8.504825e+000
215717813	-8.394826e-001	-9.630210e+000	-9.300994e+000	-9.956550e+001	-6.494984e+001	1.411551e+002	-1.247447e-001	-8.475786e+000
217592750	-8.535818e-001	-9.844214e+000	-9.201728e+000	-9.991996e+001	-6.925190e+001	1.211042e+002	-1.101183e-001	-8.494893e+000
219467688	-8.339938e-001	-9.879995e+000	-9.123175e+000	-1.000419e+002	-7.329345e+001	-4.549310e+001	-1.043696e-001	-8.535772e+000
221342625	-8.450570e-001	-9.931548e+000	-9.070131e+000	-9.983183e+001	-7.747678e+001	1.482511e+002	-1.298128e-001	-8.726096e+000
223217563	-8.467015e-001	-1.017399e+001	-9.045737e+000	-1.001305e+002	-7.450732e+001	1.175364e+002	-1.307409e-001	-8.770443e+000
225092500	-8.322586e-001	-1.009589e+001	-8.939274e+000	-9.986340e+001	-6.941439e+001	9.538606e+001	-1.223657e-001	-8.763318e+000
226967438	-8.502319e-001	-1.032036e+001	-8.846425e+000	-9.985762e+001	-7.736523e+001	1.299213e+002	-8.768745e-002	-8.925558e+000
228842375	-8.513742e-001	-1.039123e+001	-8.766540e+000	-1.000378e+002	-6.573848e+001	-1.226851e+000	-1.139308e-001	-9.056774e+000
230717313	-8.492096e-001	-1.036731e+001	-8.691986e+000	-1.000272e+002	-2.000000e+002	0.000000e+000	-1.276064e-001	-8.934830e+000
232592250	-8.443285e-001	-1.051586e+001	-8.632962e+000	-1.000827e+002	-7.083195e+001	1.312739e+002	-1.001104e-001	-9.060973e+000
234467188	-8.416497e-001	-1.063779e+001	-8.571100e+000	-1.002398e+002	-6.949003e+001	1.297057e+002	-1.197921e-001	-9.126438e+000
236342125	-8.366470e-001	-1.065060e+001	-8.443038e+000	-1.002770e+002	-7.994108e+001	1.033580e+002	-1.038561e-001	-9.295402e+000
238217063	-8.399608e-001	-1.083671e+001	-8.429486e+000	-1.001808e+002	-6.502992e+001	2.778897e+000	-1.129297e-001	-9.544534e+000
240092000	-8.390781e-001	-1.089783e+001	-8.374288e+000	-1.003049e+002	-7.280151e+001	1.786539e+002	-1.206672e-001	-9.417460e+000
241966938	-8.397931e-001	-1.101771e+001	-8.264747e+000	-1.001694e+002	-6.735892e+001	-9.616165e+001	-1.192333e-001	-9.550419e+000
243841875	-8.369054e-001	-1.116147e+001	-8.196948e+000	-1.005363e+002	-6.582252e+001	7.703804e+001	-9.367725e-002	-9.528492e+000
245716813	-8.423646e-001	-1.122668e+001	-8.128837e+000	-1.006424e+002	-6.713910e+001	-1.780171e+002	-1.355876e-001	-9.607493e+000
247591750	-8.425113e-001	-1.135724e+001	-8.046757e+000	-1.004399e+002	-7.304409e+001	1.288506e+002	-1.301738e-001	-9.679485e+000
249466688	-8.428984e-001	-1.132431e+001	-7.982768e+000	-1.006077e+002	-6.660104e+001	3.981122e+001	-1.389398e-001	-9.833379e+000
251341625	-8.423361e-001	-1.153847e+001	-7.940380e+000	-1.007149e+002	-6.628347e+001	1.066662e+002	-1.532157e-001	-9.831603e+000
253216563	-8.319563e-001	-1.155772e+001	-7.863319e+000	-1.008351e+002	-7.512096e+001	-8.813588e+001	-1.404686e-001	-9.908212e+000
255091500	-8.403817e-001	-1.173254e+001	-7.743912e+000	-1.009169e+002	-6.986624e+001	1.768761e+002	-1.310108e-001	-1.005926e+001
256966438	-8.597641e-001	-1.179846e+001	-7.692430e+000	-1.008244e+002	-6.303256e+001	-2.882861e+001	-1.257894e-001	-9.915601e+000
258841375	-8.480625e-001	-1.189957e+001	-7.583407e+000	-1.011924e+002	-7.771625e+001	-1.765272e+002	-1.410978e-001	-1.020289e+001
260716313	-8.390530e-001	-1.205496e+001	-7.536926e+000	-1.011581e+002	-6.653858e+001	1.668413e+002	-1.259347e-001	-1.015007e+001
262591250	-8.551194e-001	-1.217924e+001	-7.454824e+000	-1.012302e+002	-8.312470e+001	-1.473139e+002	-1.342584e-001	-1.024323e+001
264466188	-8.377913e-001	-1.207556e+001	-7.395456e+000	-1.016258e+002	-6.664492e+001	1.742262e+002	-1.370726e-001	-1.034862e+001
266341125	-8.681085e-001	-1.229965e+001	-7.315833e+000	-1.012159e+002	-6.272685e+001	-1.359703e+002	-1.504307e-001	-1.046289e+001
268216063	-8.480772e-001	-1.236135e+001	-7.241832e+000	-1.017778e+002	-6.585009e+001	1.049992e+002	-1.340690e-001	-1.045683e+001
270091000	-8.522782e-001	-1.252513e+001	-7.119772e+000	-1.017640e+002	-7.796371e+001	1.705148e+002	-1.620152e-001	-1.057939e+001
271965938	-8.436176e-001	-1.256056e+001	-7.035104e+000	-1.023103e+002	-7.339203e+001	-1.204684e+002	-1.531613e-001	-1.056604e+001
273840875	-8.653943e-001	-1.292591e+001	-6.963006e+000	-1.020505e+002	-7.689813e+001	-1.695505e+001	-1.225498e-001	-1.066217e+001
275715813	-8.910887e-001	-1.279580e+001	-6.776328e+000	-1.022109e+002	-7.787709e+001	-7.461365e+001	-1.681245e-001	-1.085254e+001
277590750	-8.481037e-001	-1.287387e+001	-6.726302e+000	-1.024445e+002	-6.886130e+001	-5.063046e+000	-1.412876e-001	-1.072433e+001
279465688	-8.643273e-001	-1.309171e+001	-6.656430e+000	-1.027890e+002	-6.631261e+001	2.265224e+001	-1.567850e-001	-1.087541e+001
281340625	-8.575161e-001	-1.307323e+001	-6.535403e+000	-1.027380e+002	-6.142705e+001	-1.299861e+002	-1.405920e-001	-1.082933e+001
283215563	-8.736284e-001	-1.305760e+001	-6.452291e+000	-1.031200e+002	-6.079451e+001	-9.731369e+001	-1.465000e-001	-1.107793e+001
