! Touchstone Ver. 1.0 
! Number of ports is 1
# Hz	S	RI	R	50.000000
! SCATTERING PARAMETERS  :
0.00000000e+00     -0.9429654273846435  1.15479959235322e-16  
1.00000000e+07      -0.942962651478199  0.001764884950046806  
2.00000000e+07     -0.9429543377056558  0.003529676149211967  
3.00000000e+07     -0.9429401080147021  0.005294254968754722  
4.00000000e+07     -0.9429211503881552  0.007058607393033298  
5.00000000e+07     -0.9428960938115436  0.008822543692566258  
6.00000000e+07     -0.9428643779071021   0.01058585733262359  
7.00000000e+07     -0.9428284749568328   0.01234870772643367  
8.00000000e+07     -0.9427890631362246   0.01411135182709837  
9.00000000e+07     -0.9427386014420737   0.01587215818332104  
1.00000000e+08     -0.9426897342061651   0.01763363247048325  
1.10000000e+08      -0.942635338220392   0.01939409230949045  
1.20000000e+08     -0.9425752438510901   0.02115367346468793  
1.30000000e+08     -0.9425091039980974   0.02291215352854517  
1.40000000e+08     -0.9424230362082291   0.02466542660810595  
1.50000000e+08     -0.9423412036571973   0.02642033056051976  
1.60000000e+08     -0.9422686524436146   0.02817800169593268  
1.70000000e+08     -0.9421809429730376   0.02993088649238687  
1.80000000e+08     -0.9420725496019692   0.03167806663167107  
1.90000000e+08     -0.9419732639693272   0.03342859440398561  
2.00000000e+08     -0.9418831985721793   0.03518226915244588  
2.10000000e+08     -0.9417921502251101   0.03693531704357064  
2.20000000e+08     -0.9416585904938028   0.03867393807403195  
2.30000000e+08     -0.9415339192674353   0.04041628236412907  
2.40000000e+08     -0.9414182532617948   0.04216215938230525  
2.50000000e+08       -0.94131170587504    0.0439113760024114  
2.60000000e+08     -0.9411815016143283   0.04565112360314299  
2.70000000e+08     -0.9410236233985226   0.04738066657595525  
2.80000000e+08     -0.9408743314507372   0.04911406256063423  
2.90000000e+08     -0.9407337370111801   0.05085113553235993  
3.00000000e+08     -0.9406019484339067   0.05259170722208718  
3.10000000e+08     -0.9404790711499208    0.0543355971614568  
3.20000000e+08     -0.9403139526101522    0.0560620613299078  
3.30000000e+08     -0.9401400385508577   0.05778536875013131  
3.40000000e+08     -0.9399743958378874   0.05951231939648594  
3.50000000e+08     -0.9398171218525369   0.06124275343483161  
3.60000000e+08     -0.9396683115537757   0.06297650926600447  
3.70000000e+08     -0.9394789856420976   0.06469287529488334  
3.80000000e+08     -0.9392836950267032   0.06640700013356279  
3.90000000e+08     -0.9390962004534559   0.06812457729636436  
4.00000000e+08     -0.9389165856944525   0.06984546593683287  
4.10000000e+08     -0.9387449325697278   0.07156952385994131  
4.20000000e+08     -0.9385522744259926   0.07328399408287314  
4.30000000e+08     -0.9383087311878937   0.07497648966116539  
4.40000000e+08     -0.9380720100861013   0.07667230557320802  
4.50000000e+08     -0.9378421779229369   0.07837133137493417  
4.60000000e+08     -0.9376193001807882   0.08007345574386503  
4.70000000e+08     -0.9374034410136634   0.08177856649349029  
4.80000000e+08     -0.9371946632388783   0.08348655058766469  
4.90000000e+08     -0.9369930283288638   0.08519729415502302  
5.00000000e+08     -0.9367985964031008   0.08691068250341059  
5.10000000e+08     -0.9366114262201829   0.08862660013433049  
5.20000000e+08     -0.9364315751699905    0.0903449307574032  
5.30000000e+08     -0.9361631573743631   0.09202595880463484  
5.40000000e+08     -0.9358918766378083   0.09370596830839319  
5.50000000e+08     -0.9356264302471599   0.09538849572981528  
5.60000000e+08     -0.9353668607400077   0.09707346077230383  
5.70000000e+08     -0.9351132098843231   0.09876078271239019  
5.80000000e+08     -0.9348655186757003    0.1004503804062125  
5.90000000e+08     -0.9346238273346458    0.1021421722959855  
6.00000000e+08     -0.9343881753038971    0.1038360764164606  
6.10000000e+08     -0.9341586012457896    0.1055320104013728  
6.20000000e+08     -0.9339351430396516    0.1072298914898827  
6.30000000e+08     -0.9336722156857278     0.108911273220039  
6.40000000e+08     -0.9333688186105467    0.1105761943912631  
6.50000000e+08     -0.9330702569629747    0.1122429981064591  
6.60000000e+08     -0.9327765575827347    0.1139116277388856  
6.70000000e+08     -0.9324877468786655    0.1155820264618491  
6.80000000e+08     -0.9322038508279652     0.117254137251476  
6.90000000e+08     -0.9319248949754515     0.118927902889477  
7.00000000e+08     -0.9316509044328255    0.1206032659659062  
7.10000000e+08     -0.9313819038779526    0.1222801688819026  
7.20000000e+08     -0.9311179175541445     0.123958553852433  
7.30000000e+08     -0.9308523490133807    0.1256357610185432  
7.40000000e+08     -0.9305184061686869    0.1272857292013649  
7.50000000e+08      -0.930188412156683      0.12893704738421  
7.60000000e+08     -0.9298623837712184    0.1305896759350539  
7.70000000e+08     -0.9295403375681189    0.1322435751321271  
7.80000000e+08      -0.929222289865053    0.1338987051650803  
7.90000000e+08     -0.9289082567414121    0.1355550261361395  
8.00000000e+08     -0.9285982540381772    0.1372124980612605  
8.10000000e+08     -0.9282922973578022    0.1388710808712776  
8.20000000e+08      -0.927990402064092    0.1405307344130461  
8.30000000e+08     -0.9276925832820856     0.142191418450582  
8.40000000e+08     -0.9273628509289881    0.1438393122796878  
8.50000000e+08     -0.9270186256186652    0.1454812566602683  
8.60000000e+08     -0.9266778022747423    0.1471241084877404  
8.70000000e+08     -0.9263403921406975    0.1487678373434807  
8.80000000e+08     -0.9260064063085232    0.1504124127638423  
8.90000000e+08     -0.9256609644815675     0.152052050582813  
9.00000000e+08      -0.925301070337923    0.1536856548324377  
9.10000000e+08     -0.9249442206765396    0.1553199917715788  
9.20000000e+08     -0.9245904244409504    0.1569550359514142  
9.30000000e+08     -0.9242396904623627    0.1585907618944826  
9.40000000e+08     -0.9238844293659718    0.1602241982751667  
9.50000000e+08      -0.923509222591027    0.1618494071733276  
9.60000000e+08     -0.9231367333667443    0.1634751912322946  
9.70000000e+08     -0.9227669688208583    0.1651015291284087  
9.80000000e+08     -0.9223999359977595    0.1667283995204249  
9.90000000e+08      -0.922034456385127    0.1683553183311496  
1.00000000e+09     -0.9216442830145054    0.1699720647398699  
1.01000000e+09     -0.9212565283963909    0.1715892442382846  
1.02000000e+09     -0.9208711982252391    0.1732068389291636  
1.03000000e+09     -0.9204882981336125     0.174824830905068  
1.04000000e+09     -0.9201078336922263    0.1764432022485184  
1.05000000e+09     -0.9197074723275839    0.1780531642175521  
1.06000000e+09     -0.9193048140052742     0.179661680162069  
1.07000000e+09      -0.918904305876887    0.1812704858259852  
1.08000000e+09     -0.9185059524597364     0.182879566156222  
1.09000000e+09     -0.9181097582251747    0.1844889060944624  
1.10000000e+09     -0.9177000241228014    0.1860922465876992  
1.11000000e+09     -0.9172828147033086    0.1876920372069262  
1.12000000e+09     -0.9168675047564894    0.1892920037664753  
1.13000000e+09     -0.9164540979192352    0.1908921335896878  
1.14000000e+09      -0.916042597794251     0.192492413997762  
1.15000000e+09     -0.9156231885351573    0.1940888700474502  
1.16000000e+09     -0.9151917710426798    0.1956798746680697  
1.17000000e+09     -0.9147620235395434    0.1972709517948422  
1.18000000e+09     -0.9143339489685584    0.1988620907329231  
1.19000000e+09     -0.9139075502470871    0.2004532807872544  
1.20000000e+09     -0.9134782222330183    0.2020426212564254  
1.21000000e+09      -0.913032929622739     0.203624784011621  
1.22000000e+09      -0.912589096642841    0.2052069249714935  
1.23000000e+09     -0.9121467256903608    0.2067890350966251  
1.24000000e+09     -0.9117058191433688    0.2083711053485245  
1.25000000e+09      -0.911266379360978    0.2099531266896659  
1.26000000e+09        -0.9108075347509     0.211526396390762  
1.27000000e+09     -0.9103499566158127    0.2130995580505765  
1.28000000e+09     -0.9098936469254214    0.2146726040145339  
1.29000000e+09      -0.909438607635276    0.2162455266295965  
1.30000000e+09     -0.9089848406867718    0.2178183182442954  
1.31000000e+09     -0.9085168229610147    0.2193843802786101  
1.32000000e+09     -0.9080458280017401    0.2209485250092145  
1.33000000e+09     -0.9075759234733104    0.2225124760628633  
1.34000000e+09     -0.9071071110024644    0.2240762269466977  
1.35000000e+09     -0.9066393922053518    0.2256397711696851  
1.36000000e+09     -0.9061620154350798    0.2271984459187331  
1.37000000e+09     -0.9056779185781889    0.2287535431867017  
1.38000000e+09     -0.9051947481454681    0.2303083748746928  
1.39000000e+09     -0.9047125055103674    0.2318629354622574  
1.40000000e+09     -0.9042311920383844    0.2334172194308084  
1.41000000e+09     -0.9037443082949255    0.2349683478768657  
1.42000000e+09     -0.9032474131035093    0.2365143724829352  
1.43000000e+09     -0.9027512929443376    0.2380600649834015  
1.44000000e+09     -0.9022559489986698     0.239605420673274  
1.45000000e+09     -0.9017613824417692    0.2411504348493266  
1.46000000e+09      -0.901264876004529    0.2426938758174791  
1.47000000e+09     -0.9007554720982671     0.244230808317771  
1.48000000e+09     -0.9002467032208767    0.2457673469423101  
1.49000000e+09     -0.8997385704110845    0.2473034876699519  
1.50000000e+09     -0.8992310747030615    0.2488392264811401  
1.51000000e+09     -0.8987242171264174    0.2503745593579254  
1.52000000e+09      -0.898203221385083    0.2519026816656067  
1.53000000e+09     -0.8976820912819045    0.2534300576478486  
1.54000000e+09     -0.8971614674428824    0.2549569787499497  
1.55000000e+09     -0.8966413508012412    0.2564834415253107  
1.56000000e+09      -0.896121742286705    0.2580094425287256  
1.57000000e+09     -0.8955917537100135    0.2595298577795896  
1.58000000e+09     -0.8950585360230864    0.2610480655416728  
1.59000000e+09     -0.8945257041774369    0.2625657650837341  
1.60000000e+09     -0.8939932590382624    0.2640829534388024  
1.61000000e+09     -0.8934612014680483    0.2655996276410796  
1.62000000e+09     -0.8929221251369593    0.2671122249647724  
1.63000000e+09     -0.8923770809345307    0.2686212626567037  
1.64000000e+09     -0.8918323106840137     0.270129742030277  
1.65000000e+09     -0.8912878152096887     0.271637660519274  
1.66000000e+09     -0.8907435953337004    0.2731450155584416  
1.67000000e+09     -0.8901933743657382    0.2746486927188058  
1.68000000e+09     -0.8896307698791756    0.2761455431630567  
1.69000000e+09     -0.8890682848663058    0.2776417712334578  
1.70000000e+09     -0.8885059201345771    0.2791373748388118  
1.71000000e+09     -0.8879436764899186    0.2806323518885999  
1.72000000e+09     -0.8873815547367314    0.2821267002929866  
1.73000000e+09     -0.8868195556778825    0.2836204179628322  
1.74000000e+09     -0.8862576801147005    0.2851135028096963  
1.75000000e+09      -0.885695928846964    0.2866059527458488  
1.76000000e+09     -0.8851343026729019     0.288097765684276  
1.77000000e+09     -0.8845728023891802    0.2895889395386896  
1.78000000e+09     -0.8839903143563936    0.2910686600337899  
1.79000000e+09     -0.8834058530450796    0.2925466919781124  
1.80000000e+09     -0.8828213308946075    0.2940240139396031  
1.81000000e+09     -0.8822367487402146    0.2955006242891482  
1.82000000e+09     -0.8816521074160989      0.29697652139808  
1.83000000e+09      -0.881067407755413    0.2984517036381845  
1.84000000e+09     -0.8804826505902609    0.2999261693817047  
1.85000000e+09     -0.8798978367516925    0.3013999170013497  
1.86000000e+09      -0.879312967069697    0.3028729448702966  
1.87000000e+09     -0.8787280423732019    0.3043452513621998  
1.88000000e+09     -0.8781328192580091    0.3058113495580939  
1.89000000e+09     -0.8775271739344715    0.3072711917868142  
1.90000000e+09     -0.8769213099942955    0.3087302466217851  
1.91000000e+09     -0.8763152283497115    0.3101885127430563  
1.92000000e+09     -0.8757089299122078    0.3116459888310341  
1.93000000e+09      -0.875102415592528    0.3131026735664836  
1.94000000e+09     -0.8744956863006654    0.3145585656305353  
1.95000000e+09     -0.8738887429458624    0.3160136637046859  
1.96000000e+09     -0.8732815864366048    0.3174679664708041  
1.97000000e+09     -0.8726742176806199    0.3189214726111346  
1.98000000e+09      -0.872065117552882    0.3203733289655564  
1.99000000e+09     -0.8714390070818933    0.3218149844493134  
2.00000000e+09     -0.8708125404229596     0.323255781708627  
2.01000000e+09     -0.8701857185982578    0.3246957196229807  
2.02000000e+09      -0.869558542629431    0.3261347970722671  
2.03000000e+09     -0.8689310135375882      0.32757301293679  
2.04000000e+09     -0.8683031323433015    0.3290103660972674  
2.05000000e+09     -0.8676749000666034    0.3304468554348337  
2.06000000e+09     -0.8670463177269865    0.3318824798310419  
2.07000000e+09     -0.8664173863433995    0.3333172381678654  
2.08000000e+09     -0.8657881069342466    0.3347511293277037  
2.09000000e+09     -0.8651476052202796    0.3361777704671134  
2.10000000e+09     -0.8645012115398716    0.3376003061745286  
2.11000000e+09     -0.8638543430056137    0.3390219172632807  
2.12000000e+09     -0.8632070007717464    0.3404426027344493  
2.13000000e+09     -0.8625591859921505    0.3418623615897071  
2.14000000e+09     -0.8619108998203451    0.3432811928313217  
2.15000000e+09     -0.8612621434094883    0.3446990954621575  
2.16000000e+09     -0.8606129179123748    0.3461160684856762  
2.17000000e+09     -0.8599632244814356    0.3475321109059382  
2.18000000e+09     -0.8593130642687345    0.3489472217276045  
2.19000000e+09     -0.8586588047952655    0.3503591600443201  
2.20000000e+09     -0.8579931077559756    0.3517634132733511  
2.21000000e+09     -0.8573268319901184    0.3531666811418014  
2.22000000e+09     -0.8566599787993023    0.3545689627169689  
2.23000000e+09      -0.855992549484942    0.3559702570670399  
2.24000000e+09     -0.8553245453482532    0.3573705632610882  
2.25000000e+09     -0.8546559676902532    0.3587698803690765  
2.26000000e+09     -0.8539868178117606    0.3601682074618561  
2.27000000e+09     -0.8533170970133934    0.3615655436111692  
2.28000000e+09     -0.8526468065955704    0.3629618878896473  
2.29000000e+09     -0.8519759478585072    0.3643572393708136  
2.30000000e+09     -0.8512936895978559    0.3657445712400635  
2.31000000e+09     -0.8506086050239404    0.3671294597208442  
2.32000000e+09      -0.849922853538509    0.3685133051293739  
2.33000000e+09     -0.8492364365994397    0.3698961065630393  
2.34000000e+09     -0.8485493556645697       0.3712778631205  
2.35000000e+09     -0.8478616121916956    0.3726585739016885  
2.36000000e+09      -0.847173207638572    0.3740382380078097  
2.37000000e+09     -0.8464841434629106    0.3754168545413408  
2.38000000e+09     -0.8457944211223795    0.3767944226060327  
2.39000000e+09     -0.8451040420746024    0.3781709413069091  
2.40000000e+09     -0.8444081856088157    0.3795431037775043  
2.41000000e+09     -0.8437048596768015    0.3809095553513333  
2.42000000e+09     -0.8430007902726485    0.3822749105605354  
2.43000000e+09     -0.8422959790150493     0.383639168507665  
2.44000000e+09     -0.8415904275228059    0.3850023282970024  
2.45000000e+09     -0.8408841374148284    0.3863643890345559  
2.46000000e+09     -0.8401771103101333    0.3877253498280619  
2.47000000e+09     -0.8394693478278434    0.3890852097869826  
2.48000000e+09     -0.8387608515871853    0.3904439680225087  
2.49000000e+09     -0.8380516232074897    0.3918016236475565  
2.50000000e+09     -0.8373416643081862    0.3931581757767679  
2.51000000e+09     -0.8366206438025111    0.3945061161576031  
2.52000000e+09     -0.8358988150664363     0.395852910089011  
2.53000000e+09     -0.8351761798801312    0.3971985566647027  
2.54000000e+09     -0.8344527400240143    0.3985430549806247  
2.55000000e+09     -0.8337284972787454    0.3998864041349555  
2.56000000e+09     -0.8330034534252283    0.4012286032281068  
2.57000000e+09     -0.8322776102446044    0.4025696513627223  
2.58000000e+09      -0.831550969518255    0.4039095476436781  
2.59000000e+09     -0.8308235330277943    0.4052482911780806  
2.60000000e+09     -0.8300953025550708    0.4065858810752671  
2.61000000e+09     -0.8293609285751289    0.4079181727260127  
2.62000000e+09     -0.8286218850263672     0.409246318995736  
2.63000000e+09     -0.8278819812506814    0.4105732708346878  
2.64000000e+09     -0.8271412191877332    0.4118990273240328  
2.65000000e+09     -0.8263996007775448    0.4132235875477083  
2.66000000e+09     -0.8256571279604936    0.4145469505924184  
2.67000000e+09     -0.8249138026773098     0.415869115547639  
2.68000000e+09     -0.8241696268690737    0.4171900815056137  
2.69000000e+09     -0.8234246024772108    0.4185098475613537  
2.70000000e+09     -0.8226787314434895    0.4198284128126378  
2.71000000e+09     -0.8219306614191023     0.421144653253004  
2.72000000e+09     -0.8211749402369402    0.4224540551146752  
2.73000000e+09      -0.820418314985524    0.4237622183818533  
2.74000000e+09     -0.8196607877589038    0.4250691421200245  
2.75000000e+09     -0.8189023606515807    0.4263748253979965  
2.76000000e+09      -0.818143035758497    0.4276792672878986  
2.77000000e+09     -0.8173828151750357    0.4289824668651805  
2.78000000e+09     -0.8166217009970141    0.4302844232086132  
2.79000000e+09     -0.8158596953206773    0.4315851354002842  
2.80000000e+09     -0.8150968002426945    0.4328846025256012  
2.81000000e+09     -0.8143330178601539    0.4341828236732881  
2.82000000e+09     -0.8135629469524045    0.4354749806126392  
2.83000000e+09       -0.81279014311757    0.4367642558782627  
2.84000000e+09     -0.8120164027324837    0.4380522502855441  
2.85000000e+09     -0.8112417280392088    0.4393389628912539  
2.86000000e+09     -0.8104661212803066    0.4406243927560336  
2.87000000e+09     -0.8096895846988333    0.4419085389443967  
2.88000000e+09     -0.8089121205383303    0.4431914005247261  
2.89000000e+09     -0.8081337310428194    0.4444729765692741  
2.90000000e+09     -0.8073544184567945    0.4457532661541593  
2.91000000e+09     -0.8065741850252159    0.4470322683593694  
2.92000000e+09     -0.8057909198263209    0.4483079430375199  
2.93000000e+09     -0.8050024794161226    0.4495782305587672  
2.94000000e+09     -0.8042130762278812    0.4508471987079048  
2.95000000e+09     -0.8034227126426721    0.4521148465354899  
2.96000000e+09     -0.8026313910420911    0.4533811730964878  
2.97000000e+09     -0.8018391138082466    0.4546461774502714  
2.98000000e+09     -0.8010458833237499    0.4559098586606178  
2.99000000e+09     -0.8002517019717095    0.4571722157957095  
3.00000000e+09      -0.799456572135716    0.4584332479281322  
3.01000000e+09      -0.798660496199843     0.459692954134872  
3.02000000e+09     -0.7978634765486307    0.4609513334973175  
3.03000000e+09     -0.7970604058679552    0.4622030231140125  
3.04000000e+09     -0.7962558910607781    0.4634528712885432  
3.05000000e+09     -0.7954503973819251    0.4647013634243088  
3.06000000e+09     -0.7946439273421627     0.465948498578151  
3.07000000e+09     -0.7938364834527512    0.4671942758118282  
3.08000000e+09     -0.7930280682254375    0.4684386941920145  
3.09000000e+09     -0.7922186841724398    0.4696817527902988  
3.10000000e+09     -0.7914083338064395    0.4709234506831811  
3.11000000e+09     -0.7905970196405736    0.4721637869520726  
3.12000000e+09     -0.7897847441884205    0.4734027606832931  
3.13000000e+09     -0.7889690814600857     0.474637578520658  
3.14000000e+09     -0.7881500063876867    0.4758682217906536  
