! Touchstone Ver. 1.0 
! Number of ports is 1
# Hz	S	RI	R	50.000000
! SCATTERING PARAMETERS  :
0.00000000e+00     -0.9805769331225543  1.200860402466264e-16  
1.00000000e+07     -0.9805721122930511  0.001843390754719935  
2.00000000e+07     -0.9805576774925275  0.003686628615538807  
3.00000000e+07     -0.9805336495464632  0.005529544324897226  
4.00000000e+07     -0.9805001510813185  0.007372146347426303  
5.00000000e+07     -0.9804569669583869  0.009214176776175776  
6.00000000e+07     -0.9804047493323341   0.01105563908565979  
7.00000000e+07     -0.9803566800571756   0.01290104402301172  
8.00000000e+07     -0.9802887933267753   0.01474265323523931  
9.00000000e+07     -0.9802060974186003   0.01658145560368974  
1.00000000e+08     -0.9801054559854412   0.01841682417621857  
1.10000000e+08     -0.9800401351522599   0.02026668607127369  
1.20000000e+08     -0.9799062496885691   0.02209424074457225  
1.30000000e+08     -0.9798000927377863   0.02393461193716584  
1.40000000e+08     -0.9797137324126217   0.02578313563211435  
1.50000000e+08     -0.9795581977421057   0.02760922230738317  
1.60000000e+08     -0.9794293766958421   0.02944689030073073  
1.70000000e+08      -0.979327898478243   0.03129500093827524  
1.80000000e+08     -0.9791442130960374   0.03311566833649689  
1.90000000e+08     -0.9789803203302783   0.03494495404388707  
2.00000000e+08      -0.978838432011028   0.03678274635619749  
2.10000000e+08     -0.9787031126152625   0.03862295478531288  
2.20000000e+08     -0.9785082573996757   0.04044363017300501  
2.30000000e+08     -0.9783308183827873   0.04227097916061441  
2.40000000e+08     -0.9781710169425504   0.04410451757715947  
2.50000000e+08     -0.9779633746939338   0.04592155090259402  
2.60000000e+08     -0.9777586853159985   0.04773997083451702  
2.70000000e+08     -0.9775680272811043    0.0495632502832617  
2.80000000e+08     -0.9773717564362214    0.0513838562857625  
2.90000000e+08     -0.9771178558978713   0.05318320510229606  
3.00000000e+08     -0.9768739010027522   0.05498618417498072  
3.10000000e+08     -0.9766399615521448   0.05679261890015369  
3.20000000e+08     -0.9764161051065677   0.05860233378993462  
3.30000000e+08     -0.9762023969789473   0.06041515249599928  
3.40000000e+08     -0.9759989002279279   0.06223089783329497  
3.50000000e+08     -0.9757803614624154   0.06403948800132513  
3.60000000e+08     -0.9755039112870899    0.0658246453682597  
3.70000000e+08     -0.9752340322452935   0.06761186876643714  
3.80000000e+08     -0.9749707534859771   0.06940107231421329  
3.90000000e+08     -0.9747141034259553   0.07119216990324856  
4.00000000e+08     -0.9744641097492527   0.07298507520330953  
4.10000000e+08     -0.9742207994064667   0.07477970166704673  
4.20000000e+08     -0.9739617878316043   0.07656593089339141  
4.30000000e+08     -0.9736631575285197   0.07833343123819902  
4.40000000e+08      -0.973368980373128   0.08010210395403311  
4.50000000e+08     -0.9730792700274039   0.08187190247984635  
4.60000000e+08     -0.9727940398787063    0.0836427801903773  
4.70000000e+08     -0.9725133030398069   0.08541469039730461  
4.80000000e+08     -0.9722370723489198   0.08718758635039914  
4.90000000e+08     -0.9719452203990786   0.08895119088653372  
5.00000000e+08     -0.9716252480552009   0.09069944729728202  
5.10000000e+08      -0.971308370823453   0.09244832812811271  
5.20000000e+08     -0.9709945958440894   0.09419780568131809  
5.30000000e+08     -0.9706839301403097    0.0959478522404176  
5.40000000e+08     -0.9703763806183142   0.09769844007048983  
5.50000000e+08     -0.9700719540673666   0.09944954141850974  
5.60000000e+08     -0.9697522089303264    0.1011907196323983  
5.70000000e+08     -0.9694118571858787    0.1029192196830293  
5.80000000e+08     -0.9690737012339379    0.1046479848907713  
5.90000000e+08     -0.9687377452105361    0.1063769973916277  
6.00000000e+08     -0.9684039931960154    0.1081062393168333  
6.10000000e+08     -0.9680724492150542    0.1098356927929731  
6.20000000e+08     -0.9677431172367029    0.1115653399421036  
6.30000000e+08     -0.9673987997832657    0.1132846191752681  
6.40000000e+08     -0.9670390167799228    0.1149934154823136  
6.50000000e+08     -0.9666808111693331    0.1167022269577857  
6.60000000e+08     -0.9663241855936121    0.1184110412940397  
6.70000000e+08     -0.9659691426659014     0.120119846183229  
6.80000000e+08     -0.9656156849703782    0.1218286293173595  
6.90000000e+08     -0.9652638150622702    0.1235373783883445  
7.00000000e+08      -0.964897271789019    0.1252354420872861  
7.10000000e+08     -0.9645189525190109    0.1269248583562271  
7.20000000e+08     -0.9641417679034948     0.128614106808657  
7.30000000e+08     -0.9637657197943955    0.1303031785185338  
7.40000000e+08     -0.9633908100274713    0.1319920645610732  
7.50000000e+08     -0.9630170404223137    0.1336807560127825  
7.60000000e+08     -0.9626444127823525    0.1353692439514941  
7.70000000e+08     -0.9622574075951683    0.1370468165605649  
7.80000000e+08     -0.9618613947827188    0.1387172931864593  
7.90000000e+08      -0.961466186393552    0.1403874623740263  
8.00000000e+08     -0.9610717838425946    0.1420573173940828  
8.10000000e+08     -0.9606781885352508    0.1437268515190742  
8.20000000e+08      -0.960285401867398    0.1453960580230995  
8.30000000e+08     -0.9598934252253828    0.1470649301819309  
8.40000000e+08     -0.9594873712905813    0.1487227222615164  
8.50000000e+08     -0.9590744642678994    0.1503747433871547  
8.60000000e+08     -0.9586621053959814    0.1520263469416323  
8.70000000e+08     -0.9582502958425135    0.1536775277025942  
8.80000000e+08     -0.9578390367693234    0.1553282804492894  
8.90000000e+08     -0.9574283293323732    0.1569785999625894  
9.00000000e+08     -0.9570181746817537    0.1586284810250051  
9.10000000e+08     -0.9565942651113108    0.1602671732152485  
9.20000000e+08     -0.9561652227145576    0.1619012375600304  
9.30000000e+08     -0.9557365221816654    0.1635347951364433  
9.40000000e+08     -0.9553081645416509    0.1651678418004916  
9.50000000e+08     -0.9548801508197838    0.1668003734096232  
9.60000000e+08     -0.9544524820375796    0.1684323858227449  
9.70000000e+08     -0.9540251592127916    0.1700638749002366  
9.80000000e+08     -0.9535844389506526    0.1716841199559284  
9.90000000e+08     -0.9531399809603495    0.1733007310481381  
1.00000000e+09     -0.9526956933355415    0.1749167615794595  
1.01000000e+09      -0.952251577032415    0.1765322082017985  
1.02000000e+09     -0.9518076330046643    0.1781470675683124  
1.03000000e+09     -0.9513638622034839    0.1797613363334236  
1.04000000e+09     -0.9509202655775605    0.1813750111528304  
1.05000000e+09     -0.9504636667744242    0.1829774415939123  
1.06000000e+09     -0.9500044681772829    0.1845771059604932  
1.07000000e+09     -0.9495452934171843    0.1861761276184034  
1.08000000e+09     -0.9490861434196223    0.1877745038189741  
1.09000000e+09     -0.9486270191083583    0.1893722318146092  
1.10000000e+09     -0.9481679214054157    0.1909693088587951  
1.11000000e+09     -0.9477088512310736    0.1925657322061108  
1.12000000e+09      -0.947237210393687    0.1941509659548721  
1.13000000e+09     -0.9467638970318176    0.1957341914006091  
1.14000000e+09     -0.9462904794858663     0.197316720966339  
1.15000000e+09     -0.9458169586789714    0.1988985523597507  
1.16000000e+09      -0.945343335533009     0.200479683289456  
1.17000000e+09     -0.9448696109685869    0.2020601114649992  
1.18000000e+09     -0.9443957859050404    0.2036398345968654  
1.19000000e+09     -0.9439098498935238    0.2052084789771173  
1.20000000e+09     -0.9434229916993033    0.2067757740163553  
1.21000000e+09     -0.9429359154787886    0.2083423270054011  
1.22000000e+09      -0.942448622172714    0.2099081360002029  
1.23000000e+09     -0.9419611127208479    0.2114731990575248  
1.24000000e+09      -0.941473388061989    0.2130375142349507  
1.25000000e+09     -0.9409854491339622    0.2146010795908941  
1.26000000e+09     -0.9404858791502494    0.2161537294335063  
1.27000000e+09     -0.9399859875561413    0.2177055982336558  
1.28000000e+09     -0.9394857753253627    0.2192566843108292  
1.29000000e+09     -0.9389852434308789    0.2208069859852561  
1.30000000e+09     -0.9384843928448864    0.2223565015779132  
1.31000000e+09     -0.9379832245388124    0.2239052294105316  
1.32000000e+09     -0.9374811724393526    0.2254526467787052  
1.33000000e+09     -0.9369691119632602    0.2269904024898428  
1.34000000e+09     -0.9364566364188057    0.2285273406068549  
1.35000000e+09     -0.9359437468229456    0.2300634596469941  
1.36000000e+09     -0.9354304441920172    0.2315987581282339  
1.37000000e+09     -0.9349167295417372    0.2331332345692742  
1.38000000e+09     -0.9344026038871985    0.2346668874895436  
1.39000000e+09     -0.9338870487842604    0.2361987544467068  
1.40000000e+09     -0.9333628774473638    0.2377220945211531  
1.41000000e+09     -0.9328382053433828    0.2392445838856437  
1.42000000e+09     -0.9323130335412907    0.2407662212017844  
1.43000000e+09      -0.931787363109562    0.2422870051319244  
1.44000000e+09     -0.9312611951161741    0.2438069343391591  
1.45000000e+09      -0.930734530628602     0.245326007487334  
1.46000000e+09     -0.9302059947524118    0.2468428963176145  
1.47000000e+09      -0.929670034284825    0.2483522794779584  
1.48000000e+09     -0.9291334940988156    0.2498607814910321  
1.49000000e+09     -0.9285963753224503    0.2513684011196868  
1.50000000e+09     -0.9280586790834141    0.2528751371275807  
1.51000000e+09      -0.927520406509009    0.2543809882791804  
1.52000000e+09     -0.9269815587261507    0.2558859533397639  
1.53000000e+09     -0.9264404837820374    0.2573884053437452  
1.54000000e+09     -0.9258930006755121    0.2588842666394722  
1.55000000e+09     -0.9253448649173452    0.2603792184192162  
1.56000000e+09     -0.9247960777005165    0.2618732595122561  
1.57000000e+09     -0.9242466402177425    0.2633663887487803  
1.58000000e+09     -0.9236965536614773    0.2648586049598877  
1.59000000e+09     -0.9231458192239081    0.2663499069775899  
1.60000000e+09     -0.9225925727107132    0.2678384287102467  
1.61000000e+09     -0.9220337822431882    0.2693211732098631  
1.62000000e+09     -0.9214742716767371    0.2708029814033829  
1.63000000e+09     -0.9209140422740993    0.2722838521585203  
1.64000000e+09     -0.9203530952978817    0.2737637843440368  
1.65000000e+09     -0.9197914320105591    0.2752427768297439  
1.66000000e+09     -0.9192290536744724    0.2767208284865021  
1.67000000e+09      -0.918663936223214     0.278195886868666  
1.68000000e+09     -0.9180940080816703    0.2796658877225441  
1.69000000e+09     -0.9175232974818638    0.2811349266686655  
1.70000000e+09       -0.91695180576036    0.2826030025908782  
1.71000000e+09     -0.9163795342537355    0.2840701143742531  
1.72000000e+09     -0.9158064842985769    0.2855362609050829  
1.73000000e+09     -0.9152326572314795    0.2870014410708817  
1.74000000e+09     -0.9146559110803028     0.288463461065482  
1.75000000e+09     -0.9140749759132653    0.2899210550599297  
1.76000000e+09     -0.9134932007136251     0.291377662428312  
1.77000000e+09     -0.9129105868951767    0.2928332820531239  
1.78000000e+09     -0.9123271358718777    0.2942879128182859  
1.79000000e+09     -0.9117428490578536    0.2957415536091446  
1.80000000e+09     -0.9111577278673919    0.2971942033124728  
1.81000000e+09     -0.9105695451964765    0.2986435653654658  
1.82000000e+09     -0.9099776998297828    0.3000890530460472  
1.83000000e+09     -0.9093849614011422    0.3015335300270151  
1.84000000e+09     -0.9087913314043957       0.3029769951761  
1.85000000e+09     -0.9081968113337178    0.3044194473626912  
1.86000000e+09     -0.9076014026836119    0.3058608854578347  
1.87000000e+09     -0.9070051069489097    0.3073013083342352  
1.88000000e+09     -0.9064056378804776    0.3087383479547561  
1.89000000e+09     -0.9058029525662352    0.3101719914321487  
1.90000000e+09     -0.9051993255103332    0.3116046006040579  
1.91000000e+09     -0.9045947582889459     0.313036174313514  
1.92000000e+09     -0.9039892524787542    0.3144667114054609  
1.93000000e+09     -0.9033828096569431    0.3158962107267577  
1.94000000e+09     -0.9027754314011964    0.3173246711261776  
1.95000000e+09     -0.9021647918620187    0.3187496785403626  
1.96000000e+09     -0.9015513148545158     0.320171702606709  
1.97000000e+09     -0.9009368516073671    0.3215926690970289  
1.98000000e+09     -0.9003214037808732    0.3230125768226673  
1.99000000e+09     -0.8997049730360174    0.3244314245971615  
2.00000000e+09     -0.8990875610344644    0.3258492112362419  
2.01000000e+09     -0.8984691694385568    0.3272659355578303  
2.02000000e+09     -0.8978474478528843    0.3286791571494361  
2.03000000e+09     -0.8972232112073029     0.330089749979215  
2.04000000e+09     -0.8965979478569491    0.3314992622066102  
2.05000000e+09     -0.8959716595475697    0.3329076926068039  
2.06000000e+09     -0.8953443480257725    0.3343150399574644  
2.07000000e+09     -0.8947160150390238     0.335721303038752  
2.08000000e+09     -0.8940866623356462    0.3371264806333132  
2.09000000e+09     -0.8934539271907235    0.3385281199712511  
2.10000000e+09      -0.892818952860182    0.3399274337313914  
2.11000000e+09     -0.8921829152548418     0.341325644051913  
2.12000000e+09     -0.8915458162067563    0.3427227496694661  
2.13000000e+09     -0.8909076575490169    0.3441187493235038  
2.14000000e+09     -0.8902684411157484    0.3455136417562773  
2.15000000e+09     -0.8896281687421077    0.3469074257128402  
2.16000000e+09     -0.8889844736360127    0.3482976469039019  
2.17000000e+09     -0.8883387758740573    0.3496858017187765  
2.18000000e+09     -0.8876919820272324      0.35107283041138  
2.19000000e+09     -0.8870440940143325    0.3524587316792342  
2.20000000e+09     -0.8863951137553592    0.3538435042229858  
2.21000000e+09     -0.8857450431715178    0.3552271467464039  
2.22000000e+09     -0.8850938841852115    0.3566096579563834  
2.23000000e+09        -0.8844382277113    0.3579874640509437  
2.24000000e+09     -0.8837804563367716    0.3593630980085928  
2.25000000e+09      -0.883121539695595    0.3607375769865351  
2.26000000e+09     -0.8824614798308129    0.3621108996137002  
2.27000000e+09     -0.8818002787869311    0.3634830645226357  
2.28000000e+09     -0.8811379386099119    0.3648540703495061  
2.29000000e+09     -0.8804744613471713     0.366223915734094  
2.30000000e+09     -0.8798098490475665    0.3675925993198029  
2.31000000e+09     -0.8791441037613936    0.3689601197536561  
2.32000000e+09     -0.8784772275403795    0.3703264756863013  
2.33000000e+09     -0.8778092224376756    0.3716916657720078  
2.34000000e+09     -0.8771400905078499    0.3730556886686703  
2.35000000e+09     -0.8764698338068813    0.3744185430378097  
2.36000000e+09     -0.8757984543921545    0.3757802275445734  
2.37000000e+09     -0.8751212519295847    0.3771358556078107  
2.38000000e+09     -0.8744422730299658    0.3784896766859976  
2.39000000e+09     -0.8737621035774455    0.3798422985948049  
2.40000000e+09     -0.8730807457852313    0.3811937198946717  
2.41000000e+09     -0.8723982018682682    0.3825439391503326  
2.42000000e+09     -0.8717144740432317    0.3838929549308183  
2.43000000e+09     -0.8710295645285149    0.3852407658094587  
2.44000000e+09     -0.8703434755442212    0.3865873703638846  
2.45000000e+09     -0.8696562093121565    0.3879327671760292  
2.46000000e+09      -0.868967768055818    0.3892769548321293  
2.47000000e+09     -0.8682781540003871    0.3906199319227288  
2.48000000e+09     -0.8675873693727184    0.3919616970426776  
2.49000000e+09     -0.8668954164013328    0.3933022487911365  
2.50000000e+09     -0.8662022973164069    0.3946415857715759  
2.51000000e+09     -0.8655033925932538    0.3959748334499633  
2.52000000e+09     -0.8648032623622747    0.3973068400960469  
2.53000000e+09     -0.8641019089999182    0.3986376042130613  
2.54000000e+09     -0.8633993348845868    0.3999671243092122  
2.55000000e+09     -0.8626955423966219    0.4012953988976742  
2.56000000e+09     -0.8619905339182977    0.4026224264965973  
2.57000000e+09     -0.8612843118338048    0.4039482056291067  
2.58000000e+09     -0.8605768785292401    0.4052727348233045  
2.59000000e+09     -0.8598682363925968    0.4065960126122752  
2.60000000e+09       -0.85915838781375    0.4079180375340835  
2.61000000e+09     -0.8584473351844456    0.4092388081317807  
2.62000000e+09     -0.8577350808982916    0.4105583229534029  
2.63000000e+09     -0.8570216273507428    0.4118765805519764  
2.64000000e+09     -0.8563065290952369    0.4131930906614091  
2.65000000e+09     -0.8555866232676482    0.4145044180624926  
2.66000000e+09     -0.8548654708342314    0.4158144622405288  
2.67000000e+09     -0.8541430743290304    0.4171232216656729  
2.68000000e+09     -0.8534194362881689    0.4184306948137038  
2.69000000e+09     -0.8526945592498354    0.4197368801660253  
2.70000000e+09     -0.8519684457542717    0.4210417762096718  
2.71000000e+09     -0.8512410983437539    0.4223453814373084  
2.72000000e+09     -0.8505125195625819    0.4236476943472327  
2.73000000e+09     -0.8497827119570648      0.42494871344338  
2.74000000e+09     -0.8490516780755045     0.426248437235323  
2.75000000e+09     -0.8483194204681838    0.4275468642382755  
2.76000000e+09     -0.8475859416873512    0.4288439929730952  
2.77000000e+09      -0.846851244287206    0.4301398219662824  
2.78000000e+09     -0.8461145426167797    0.4314334469357159  
2.79000000e+09     -0.8453738404304078    0.4327225973024271  
2.80000000e+09     -0.8446318811075165    0.4340104237109962  
2.81000000e+09      -0.843888667330246    0.4352969246198756  
2.82000000e+09      -0.843144201782858     0.436582098493758  
2.83000000e+09     -0.8423984871517234    0.4378659438035814  
2.84000000e+09     -0.8416515261252995    0.4391484590265329  
2.85000000e+09     -0.8409033213941174    0.4404296426460477  
2.86000000e+09     -0.8401538756507619     0.441709493151814  
2.87000000e+09     -0.8394031915898602    0.4429880090397748  
2.88000000e+09     -0.8386512719080569    0.4442651888121292  
2.89000000e+09     -0.8378981193040053    0.4455410309773349  
2.90000000e+09     -0.8371437364783457    0.4468155340501109  
2.91000000e+09     -0.8363881261336895    0.4480886965514406  
2.92000000e+09     -0.8356302516930273    0.4493592430879672  
2.93000000e+09      -0.834869050674295    0.4506258863565625  
2.94000000e+09     -0.8341065914846585    0.4518911667250238  
2.95000000e+09     -0.8333428769431434    0.4531550826615549  
2.96000000e+09     -0.8325779098708628    0.4544176326411735  
2.97000000e+09     -0.8318116930909913    0.4556788151457126  
2.98000000e+09      -0.831044229428749    0.4569386286638213  
2.99000000e+09     -0.8302755217113826    0.4581970716909692  
3.00000000e+09     -0.8295055727681433    0.4594541427294467  
3.01000000e+09     -0.8287343854302712    0.4607098402883676  
3.02000000e+09     -0.8279619625309743    0.4619641628836707  
3.03000000e+09     -0.8271883069054082    0.4632171090381211  
3.04000000e+09     -0.8264134213906595    0.4644686772813134  
3.05000000e+09     -0.8256373088257251    0.4657188661496711  
3.06000000e+09     -0.8248587592680461    0.4669660510353211  
3.07000000e+09     -0.8240774490257581    0.4682098131692214  
3.08000000e+09     -0.8232948880289901    0.4694521755635828  
3.09000000e+09     -0.8225110792211339    0.4706931367168747  
3.10000000e+09     -0.8217260255475481    0.4719326951348937  
3.11000000e+09     -0.8209397299555359    0.4731708493307638  
3.12000000e+09     -0.8201521953943239    0.4744075978249382  
3.13000000e+09     -0.8193634248150407    0.4756429391452011  
3.14000000e+09     -0.8185734211706941    0.4768768718266682  
