! Touchstone Ver. 1.0 
! Number of ports is 1
# Hz	S	RI	R	50.000000
! SCATTERING PARAMETERS  :
0.00000000e+00      -0.956328711699359  1.171164895715332e-16  
1.00000000e+07     -0.9563272525063298  0.001550812642342874  
2.00000000e+07     -0.9563228749511361  0.003101615951999247  
3.00000000e+07     -0.9563155791054586  0.004652400596621841  
4.00000000e+07      -0.956305365088761  0.006203157244541656  
5.00000000e+07     -0.9562922330682806  0.007753876565107422  
6.00000000e+07     -0.9562761832590204  0.009304549229024895  
7.00000000e+07     -0.9562572159237341   0.01085516590869434  
8.00000000e+07     -0.9562353313729112   0.01240571727855258  
9.00000000e+07     -0.9562105299647561   0.01395619401540686  
1.00000000e+08     -0.9561828121051682   0.01550658679877785  
1.10000000e+08     -0.9561521782477153   0.01705688631123488  
1.20000000e+08      -0.956118628893606   0.01860708323873601  
1.30000000e+08     -0.9560821645916588    0.0201571682709641  
1.40000000e+08     -0.9560427859382691   0.02170713210166388  
1.50000000e+08     -0.9560004935773704   0.02325696542898129  
1.60000000e+08      -0.955955288200397    0.0248066589557979  
1.70000000e+08     -0.9559071705462399   0.02635620339006793  
1.80000000e+08     -0.9558561414012015   0.02790558944515408  
1.90000000e+08     -0.9558022015989476   0.02945480784016311  
2.00000000e+08     -0.9557453520204555      0.03100384930028  
2.10000000e+08     -0.9556855935939603   0.03255270455710316  
2.20000000e+08     -0.9556229272948975   0.03410136434897871  
2.30000000e+08     -0.9555573541458424   0.03564981942133126  
2.40000000e+08     -0.9554888752164483   0.03719806052699949  
2.50000000e+08     -0.9554174916233795   0.03874607842656727  
2.60000000e+08      -0.955343204530244   0.04029386388869347  
2.70000000e+08     -0.9552660151475202   0.04184140769044545  
2.80000000e+08     -0.9551859247324839   0.04338870061762699  
2.90000000e+08     -0.9551029345891304   0.04493573346510758  
3.00000000e+08     -0.9550170460680945   0.04648249703715344  
3.10000000e+08     -0.9549282605665674   0.04802898214775139  
3.20000000e+08     -0.9548365795282117   0.04957517962093896  
3.30000000e+08     -0.9547420044430708   0.05112108029112863  
3.40000000e+08     -0.9546445368474799   0.05266667500343453  
3.50000000e+08     -0.9545441783239701   0.05421195461399399  
3.60000000e+08     -0.9544409305011718   0.05575690999029526  
3.70000000e+08     -0.9543347950537157    0.0573015320114956  
3.80000000e+08     -0.9542257737021278   0.05884581156874481  
3.90000000e+08     -0.9541138682127271   0.06038973956550599  
4.00000000e+08     -0.9539990803975154   0.06193330691787375  
4.10000000e+08     -0.9538814121140667   0.06347650455489283  
4.20000000e+08     -0.9537608652654145   0.06501932341887626  
4.30000000e+08     -0.9536374417999336   0.06656175446572013  
4.40000000e+08     -0.9535111437112238   0.06810378866521889  
4.50000000e+08     -0.9533819730379848   0.06964541700138063  
4.60000000e+08     -0.9532499318638947   0.07118663047273668  
4.70000000e+08     -0.9531150223174808   0.07272742009265612  
4.80000000e+08     -0.9529772465719908   0.07426777688965397  
4.90000000e+08     -0.9528366068452597   0.07580769190770048  
5.00000000e+08     -0.9526931053995754   0.07734715620652904  
5.10000000e+08     -0.9525467445415403   0.07888616086194122  
5.20000000e+08     -0.9523975266219311   0.08042469696611305  
5.30000000e+08     -0.9522454540355559   0.08196275562789827  
5.40000000e+08     -0.9520905292211085   0.08350032797312951  
5.50000000e+08     -0.9519327546610206   0.08503740514491853  
5.60000000e+08     -0.9517721328813106   0.08657397830395819  
5.70000000e+08     -0.9516086664514304   0.08811003862881628  
5.80000000e+08     -0.9514423579841101   0.08964557731623499  
5.90000000e+08     -0.9512732101351994   0.09118058558142288  
6.00000000e+08     -0.9511012256035064   0.09271505465834999  
6.10000000e+08     -0.9509264071306351    0.0942489758000384  
6.20000000e+08     -0.9507487575008193   0.09578234027885227  
6.30000000e+08      -0.950568279540754   0.09731513938678633  
6.40000000e+08     -0.9503849761194255   0.09884736443575132  
6.50000000e+08     -0.9501988501479378    0.1003790067578606  
6.60000000e+08     -0.9500099045793373    0.1019100577057126  
6.70000000e+08     -0.9498181424084353    0.1034405086526715  
6.80000000e+08     -0.9496235666716274    0.1049703509931491  
6.90000000e+08      -0.949426180446711    0.1064995761428792  
7.00000000e+08     -0.9492259868527008    0.1080281755391978  
7.10000000e+08      -0.949022989049641    0.1095561406413151  
7.20000000e+08      -0.948817190238417    0.1110834629305878  
7.30000000e+08     -0.9486085936605619    0.1126101339107911  
7.40000000e+08     -0.9483972025980645    0.1141361451083856  
7.50000000e+08     -0.9481830203731718    0.1156614880727861  
7.60000000e+08     -0.9479660503481905    0.1171861543766257  
7.70000000e+08     -0.9477462959252876    0.1187101356160171  
7.80000000e+08     -0.9475237605462867    0.1202334234108162  
7.90000000e+08      -0.947298447692463    0.1217560094048793  
8.00000000e+08     -0.9470703608843367    0.1232778852663212  
8.10000000e+08     -0.9468395036814636    0.1247990426877682  
8.20000000e+08     -0.9466058796822245    0.1263194733866125  
8.30000000e+08     -0.9463694925236109    0.1278391691052629  
8.40000000e+08       -0.94613034588101    0.1293581216113925  
8.50000000e+08     -0.9458884434679887    0.1308763226981859  
8.60000000e+08     -0.9456437890360715    0.1323937641845833  
8.70000000e+08     -0.9453963863745215    0.1339104379155221  
8.80000000e+08     -0.9451462393101178    0.1354263357621783  
8.90000000e+08     -0.9448933517069268    0.1369414496222038  
9.00000000e+08     -0.9446377274660789    0.1384557714199603  
9.10000000e+08     -0.9443793705255369    0.1399692931067546  
9.20000000e+08     -0.9441182848598675    0.1414820066610695  
9.30000000e+08     -0.9438544744800067    0.1429939040887915  
9.40000000e+08     -0.9435879434330262    0.1445049774234384  
9.50000000e+08     -0.9433186958018972    0.1460152187263829  
9.60000000e+08     -0.9430467357052528     0.147524620087074  
9.70000000e+08     -0.9427720672971472    0.1490331736232577  
9.80000000e+08     -0.9424946947668158    0.1505408714811938  
9.90000000e+08     -0.9422146223384307    0.1520477058358699  
1.00000000e+09     -0.9419318542708569    0.1535536688912141  
1.01000000e+09     -0.9416463948574058    0.1550587528803052  
1.02000000e+09      -0.941358248425587     0.156562950065581  
1.03000000e+09     -0.9410674193368593    0.1580662527390417  
1.04000000e+09     -0.9407739119863788    0.1595686532224538  
1.05000000e+09     -0.9404777308027475    0.1610701438675492  
1.06000000e+09     -0.9401788802477583    0.1625707170562252  
1.07000000e+09     -0.9398773648161393    0.1640703652007355  
1.08000000e+09     -0.9395731890352979    0.1655690807438883  
1.09000000e+09     -0.9392663574650615    0.1670668561592311  
1.10000000e+09     -0.9389568746974184    0.1685636839512421  
1.11000000e+09     -0.9386447453562564    0.1700595566555142  
1.12000000e+09     -0.9383299740970998    0.1715544668389358  
1.13000000e+09      -0.938012565606847    0.1730484070998736  
1.14000000e+09     -0.9376925246035039    0.1745413700683475  
1.15000000e+09     -0.9373698558359194    0.1760333484062064  
1.16000000e+09     -0.9370445640835161    0.1775243348073013  
1.17000000e+09     -0.9367166541560236    0.1790143219976517  
1.18000000e+09     -0.9363861308932067    0.1805033027356173  
1.19000000e+09     -0.9360529991645964    0.1819912698120564  
1.20000000e+09     -0.9357172638692172    0.1834782160504929  
1.21000000e+09     -0.9353789299353124    0.1849641343072715  
1.22000000e+09     -0.9350380023200732    0.1864490174717163  
1.23000000e+09     -0.9346944860093604    0.1879328584662822  
1.24000000e+09     -0.9343483860174312    0.1894156502467089  
1.25000000e+09     -0.9339997073866592     0.190897385802165  
1.26000000e+09     -0.9336484551872587    0.1923780581553972  
1.27000000e+09     -0.9332946345170055    0.1938576603628723  
1.28000000e+09     -0.9329382505009558    0.1953361855149145  
1.29000000e+09     -0.9325793082911678    0.1968136267358471  
1.30000000e+09     -0.9322178130664178    0.1982899771841246  
1.31000000e+09     -0.9318537700319209     0.199765230052464  
1.32000000e+09     -0.9314871844190452    0.2012393785679759  
1.33000000e+09     -0.9311180614850316    0.2027124159922911  
1.34000000e+09     -0.9307464065127066    0.2041843356216819  
1.35000000e+09     -0.9303722248101989    0.2056551307871857  
1.36000000e+09     -0.9299955217106527    0.2071247948547209  
1.37000000e+09     -0.9296163025719444    0.2085933212252047  
1.38000000e+09     -0.9292345727763931    0.2100607033346653  
1.39000000e+09     -0.9288503377304728    0.2115269346543492  
1.40000000e+09     -0.9284636028645292    0.2129920086908332  
1.41000000e+09     -0.9280743736324865    0.2144559189861239  
1.42000000e+09      -0.927682655511561    0.2159186591177632  
1.43000000e+09     -0.9272884540019749    0.2173802226989247  
1.44000000e+09     -0.9268917746266598    0.2188406033785121  
1.45000000e+09     -0.9264926229309751    0.2202997948412505  
1.46000000e+09     -0.9260910044824119    0.2217577908077775  
1.47000000e+09     -0.9256869248703065    0.2232145850347333  
1.48000000e+09     -0.9252803897055478    0.2246701713148428  
1.49000000e+09     -0.9248714046202869    0.2261245434769986  
1.50000000e+09     -0.9244599752676466    0.2275776953863431  
1.51000000e+09     -0.9240461073214303    0.2290296209443419  
1.52000000e+09     -0.9236298064758298    0.2304803140888608  
1.53000000e+09     -0.9232110784451357    0.2319297687942349  
1.54000000e+09      -0.922789928963443    0.2333779790713382  
1.55000000e+09     -0.9223663637843632    0.2348249389676497  
1.56000000e+09     -0.9219403886807302     0.236270642567317  
1.57000000e+09     -0.9215120094443094    0.2377150839912145  
1.58000000e+09     -0.9210812318855074     0.239158257397004  
1.59000000e+09     -0.9206480618330789    0.2406001569791877  
1.60000000e+09     -0.9202125051338358    0.2420407769691603  
1.61000000e+09     -0.9197745676523585    0.2434801116352603  
1.62000000e+09     -0.9193342552707012    0.2449181552828152  
1.63000000e+09     -0.9188915738881025    0.2463549022541856  
1.64000000e+09      -0.918446529420696    0.2477903469288082  
1.65000000e+09     -0.9179991278012197    0.2492244837232321  
1.66000000e+09     -0.9175493749787241    0.2506573070911582  
1.67000000e+09      -0.917097276918284    0.2520888115234693  
1.68000000e+09     -0.9166428396007101    0.2535189915482627  
1.69000000e+09     -0.9161860690222577    0.2549478417308783  
1.70000000e+09     -0.9157269711943379    0.2563753566739223  
1.71000000e+09     -0.9152655521432328     0.257801531017293  
1.72000000e+09     -0.9148018179098037    0.2592263594381987  
1.73000000e+09     -0.9143357745492066    0.2606498366511752  
1.74000000e+09     -0.9138674281306027    0.2620719574081034  
1.75000000e+09     -0.9133967847368749    0.2634927164982184  
1.76000000e+09     -0.9129238504643415    0.2649121087481215  
1.77000000e+09     -0.9124486314224677    0.2663301290217869  
1.78000000e+09     -0.9119711337335862    0.2677467722205659  
1.79000000e+09     -0.9114913635326087    0.2691620332831902  
1.80000000e+09     -0.9110093269667472    0.2705759071857709  
1.81000000e+09     -0.9105250301952253    0.2719883889417946  
1.82000000e+09     -0.9100384793890037     0.273399473602121  
1.83000000e+09     -0.9095496807304919    0.2748091562549709  
1.84000000e+09     -0.9090586404132736    0.2762174320259198  
1.85000000e+09     -0.9085653646418238    0.2776242960778829  
1.86000000e+09     -0.9080698596312294    0.2790297436110999  
1.87000000e+09     -0.9075721316069142     0.280433769863119  
1.88000000e+09     -0.9070721868043614    0.2818363701087742  
1.89000000e+09      -0.906570031468834     0.283237539660165  
1.90000000e+09     -0.9060656718551021    0.2846372738666308  
1.91000000e+09     -0.9055591142271699     0.286035568114724  
1.92000000e+09     -0.9050503648579986    0.2874324178281786  
1.93000000e+09     -0.9045394300292372    0.2888278184678811  
1.94000000e+09     -0.9040263160309484    0.2902217655318344  
1.95000000e+09     -0.9035110291613418    0.2916142545551212  
1.96000000e+09     -0.9029935757265003    0.2930052811098665  
1.97000000e+09     -0.9024739620401132    0.2943948408051937  
1.98000000e+09     -0.9019521944232133     0.295782929287186  
1.99000000e+09     -0.9014282792039008    0.2971695422388346  
2.00000000e+09     -0.9009022227170914    0.2985546753799975  
2.01000000e+09     -0.9003740313042399    0.2999383244673428  
2.02000000e+09     -0.8998437113130857    0.3013204852943021  
2.03000000e+09      -0.899311269097389    0.3027011536910125  
2.04000000e+09     -0.8987767110166683    0.3040803255242618  
2.05000000e+09     -0.8982400434359473    0.3054579966974298  
2.06000000e+09     -0.8977012727254878    0.3068341631504259  
2.07000000e+09     -0.8971604052605433    0.3082088208596287  
2.08000000e+09     -0.8966174474210963    0.3095819658378197  
2.09000000e+09     -0.8960724055916081    0.3109535941341159  
2.10000000e+09     -0.8955252861607642     0.312323701833902  
2.11000000e+09     -0.8949760955212257    0.3136922850587594  
2.12000000e+09     -0.8944248400693767    0.3150593399663914  
2.13000000e+09     -0.8938715262050759    0.3164248627505492  
2.14000000e+09     -0.8933161603314117     0.317788849640957  
2.15000000e+09     -0.8927587488544549    0.3191512969032304  
2.16000000e+09     -0.8921992981830141    0.3205122008387979  
2.17000000e+09     -0.8916378147283945    0.3218715577848157  
2.18000000e+09     -0.8910743049041531    0.3232293641140845  
2.19000000e+09     -0.8905087751258636    0.3245856162349656  
2.20000000e+09     -0.8899412318108734    0.3259403105912883  
2.21000000e+09       -0.88937168137807    0.3272934436622628  
2.22000000e+09     -0.8888001302476443    0.3286450119623897  
2.23000000e+09     -0.8882265848408554     0.329995012041362  
2.24000000e+09      -0.887651051579801    0.3313434404839744  
2.25000000e+09     -0.8870735368871842    0.3326902939100245  
2.26000000e+09      -0.886494047186085    0.3340355689742133  
2.27000000e+09     -0.8859125888997343    0.3353792623660476  
2.28000000e+09     -0.8853291684512852    0.3367213708097355  
2.29000000e+09     -0.8847437922635916    0.3380618910640856  
2.30000000e+09     -0.8841564667589811     0.339400819922397  
2.31000000e+09     -0.8835671983590393    0.3407381542123596  
2.32000000e+09     -0.8829759934843842     0.342073890795938  
2.33000000e+09      -0.882382858554455    0.3434080265692701  
2.34000000e+09     -0.8817877999872896    0.3447405584625478  
2.35000000e+09     -0.8811908241993139    0.3460714834399099  
2.36000000e+09     -0.8805919376051299    0.3474007984993265  
2.37000000e+09     -0.8799911466173009    0.3487285006724805  
2.38000000e+09     -0.8793884576461415    0.3500545870246544  
2.39000000e+09      -0.878783877099516    0.3513790546546086  
2.40000000e+09     -0.8781774113826279    0.3527019006944658  
2.41000000e+09     -0.8775690668978137    0.3540231223095836  
2.42000000e+09     -0.8769588500443457    0.3553427166984378  
2.43000000e+09     -0.8763467672182277    0.3566606810924958  
2.44000000e+09     -0.8757328248119965    0.3579770127560912  
2.45000000e+09     -0.8751170292145236    0.3592917089862982  
2.46000000e+09     -0.8744993868108235    0.3606047671128044  
2.47000000e+09     -0.8738799039818549    0.3619161844977805  
2.48000000e+09     -0.8732585871043335    0.3632259585357532  
2.49000000e+09     -0.8726354425505365    0.3645340866534689  
2.50000000e+09     -0.8720104766881196    0.3658405663097672  
2.51000000e+09     -0.8713836958799269    0.3671453949954435  
2.52000000e+09     -0.8707551064838092    0.3684485702331176  
2.53000000e+09     -0.8701247148524364    0.3697500895770932  
2.54000000e+09       -0.86949252733312     0.371049950613227  
2.55000000e+09     -0.8688585502676325    0.3723481509587865  
2.56000000e+09     -0.8682227899920307    0.3736446882623154  
2.57000000e+09      -0.867585252836478    0.3749395602034885  
2.58000000e+09     -0.8669459451250734    0.3762327644929776  
2.59000000e+09     -0.8663048731756757    0.3775242988723036  
2.60000000e+09     -0.8656620432997387    0.3788141611137003  
2.61000000e+09     -0.8650174618021343    0.3801023490199635  
2.62000000e+09     -0.8643711349809962    0.3813888604243154  
2.63000000e+09     -0.8637230691275474    0.3826736931902522  
2.64000000e+09     -0.8630732705259383    0.3839568452114009  
2.65000000e+09     -0.8624217454530907    0.3852383144113757  
2.66000000e+09     -0.8617685001785311    0.3865180987436233  
2.67000000e+09     -0.8611135409642426    0.3877961961912844  
2.68000000e+09     -0.8604568740644972    0.3890726047670327  
2.69000000e+09     -0.8597985057257125    0.3903473225129369  
2.70000000e+09     -0.8591384421862966    0.3916203475003026  
2.71000000e+09      -0.858476689676496    0.3928916778295245  
2.72000000e+09     -0.8578132544182493    0.3941613116299345  
2.73000000e+09     -0.8571481426250395    0.3954292470596461  
2.74000000e+09     -0.8564813605017514    0.3966954823054061  
2.75000000e+09     -0.8558129142445281    0.3979600155824409  
2.76000000e+09     -0.8551428100406293    0.3992228451342966  
2.77000000e+09     -0.8544710540682922    0.4004839692326907  
2.78000000e+09     -0.8537976524965937    0.4017433861773527  
2.79000000e+09      -0.853122611485321    0.4030010942958736  
2.80000000e+09     -0.8524459371848255    0.4042570919435408  
2.81000000e+09     -0.8517676357359063    0.4055113775031928  
2.82000000e+09      -0.851087713269668    0.4067639493850524  
2.83000000e+09     -0.8504061759073971    0.4080148060265748  
2.84000000e+09      -0.849723029760438    0.4092639458922868  
2.85000000e+09     -0.8490382809300642    0.4105113674736307  
2.86000000e+09     -0.8483519355073598     0.411757069288805  
2.87000000e+09     -0.8476639995730924    0.4130010498826036  
2.88000000e+09     -0.8469744791976024    0.4142433078262602  
2.89000000e+09     -0.8462833804406781    0.4154838417172849  
2.90000000e+09     -0.8455907093514445    0.4167226501793058  
2.91000000e+09     -0.8448964719682464    0.4179597318619089  
2.92000000e+09     -0.8442006743185427    0.4191950854404815  
2.93000000e+09     -0.8435033224187846    0.4204287096160407  
2.94000000e+09     -0.8428044222743196    0.4216606031150862  
2.95000000e+09     -0.8421039798792765    0.4228907646894291  
2.96000000e+09     -0.8414020012164666    0.4241191931160376  
2.97000000e+09      -0.840698492257271    0.4253458871968673  
2.98000000e+09     -0.8399934589615515    0.4265708457587116  
2.99000000e+09     -0.8392869072775399    0.4277940676530266  
3.00000000e+09     -0.8385788431417464    0.4290155517557812  
3.01000000e+09     -0.8378692724788622    0.4302352969672893  
3.02000000e+09     -0.8371582012016604     0.431453302212046  
3.03000000e+09     -0.8364456352109109    0.4326695664385726  
3.04000000e+09     -0.8357315803952806    0.4338840886192462  
3.05000000e+09     -0.8350160426312537    0.4350968677501483  
3.06000000e+09     -0.8342990277830332     0.436307902850892  
3.07000000e+09     -0.8335805417024599    0.4375171929644645  
3.08000000e+09     -0.8328605902289323      0.43872473715707  
3.09000000e+09     -0.8321391791893136    0.4399305345179593  
3.10000000e+09     -0.8314163143978587    0.4411345841592749  
3.11000000e+09     -0.8306920016561329    0.4423368852158845  
3.12000000e+09     -0.8299662467529304    0.4435374368452242  
3.13000000e+09     -0.8292390554642003    0.4447362382271293  
3.14000000e+09     -0.8285104335529754    0.4459332885636851  
